
SetupTitle, Vd=1V(-2.5,3.5)
PrimitiveTest, I/V Sweep
TestParameter, Context.MainFrame, B1500A
TestParameter, Channel.UnitType, SMU, SMU, SMU
TestParameter, Channel.Unit, SMU1:HR, SMU2:HR, SMU3:HR
TestParameter, Channel.IName, Ig, Is, Id
TestParameter, Channel.VName, Vg, Vs, Vd
TestParameter, Channel.Mode, V, V, V
TestParameter, Channel.Func, VAR1, CONST, CONST
TestParameter, Channel.Index, 
TestParameter, Channel.Time, 
TestParameter, Measurement.Port.Unit, SMU1:HR, SMU2:HR, SMU3:HR
TestParameter, Measurement.Port.SeriesResistor, NONE, NONE, NONE
TestParameter, Measurement.Port.Filter, ON, ON, ON
TestParameter, Measurement.Port.OutputVoltageComparison, 0, 0, 0
TestParameter, Measurement.Primary.Locus, Double
TestParameter, Measurement.Primary.Scale, LINEAR
TestParameter, Measurement.Primary.Start, -2.5
TestParameter, Measurement.Primary.Stop, 3.5
TestParameter, Measurement.Primary.Step, 0.00925
TestParameter, Measurement.Primary.Compliance, 0.1
TestParameter, Measurement.Primary.PowerCompliance, 0
TestParameter, Measurement.Aborting.Condition, CONTINUE AT ANY
TestParameter, Measurement.PostOutput.Value, START
TestParameter, Measurement.PostOutput.Retention, OFF
TestParameter, Measurement.Bias.Source, -2.5, 0, 1
TestParameter, Measurement.Bias.Compliance, 0.1, 0.1, 0.1
TestParameter, Measurement.Monitor.Unit, SMU1:HR, SMU2:HR, SMU3:HR
TestParameter, Measurement.Monitor.Adc, HR ADC, HR ADC, HR ADC
TestParameter, Measurement.Monitor.Measurement, Compliance Side, Compliance Side, Compliance Side
TestParameter, Measurement.Monitor.RangingMode, LIMITED, LIMITED, LIMITED
TestParameter, Measurement.Monitor.RangeBoundary, 1nA, 1nA, 1nA
TestParameter, Measurement.Monitor.RangeRating, BY FULL RANGE, BY FULL RANGE, BY FULL RANGE
TestParameter, Measurement.Monitor.RangeRatingCoeff, 50, 50, 50
TestParameter, Measurement.Timing.Hold, 0
TestParameter, Measurement.Timing.Delay, 0
TestParameter, Measurement.Adc.HighSpeed.Mode, AUTO
TestParameter, Measurement.Adc.HighSpeed.Coeff, 1
TestParameter, Measurement.Adc.HighResolution.AutoZero, OFF
TestParameter, Measurement.Adc.HighResolution.Mode, AUTO
TestParameter, Measurement.Adc.HighResolution.Coeff, 3
TestParameter, Measurement.WaitTime.Source.Coeff, 1
TestParameter, Measurement.WaitTime.Source.Offset, 0
TestParameter, Measurement.WaitTime.Monitor.Coeff, 1
TestParameter, Measurement.WaitTime.Monitor.Offset, 0
TestParameter, Function.User.Name, absIg, absId, absIs
TestParameter, Function.User.Unit, A, A, A
TestParameter, Function.User.Definition, abs(Ig), abs(Id), abs(Is)
TestParameter, Output.Graph.Enabled, true
TestParameter, Output.Graph.AutoScaling, false
TestParameter, Output.Graph.XAxis.Data, Vg
TestParameter, Output.Graph.XAxis.Scale, Linear
TestParameter, Output.Graph.XAxis.Left, -2.5
TestParameter, Output.Graph.XAxis.Right, 3.5
TestParameter, Output.Graph.XAxis.RunTimeAutoScale, true
TestParameter, Output.Graph.YAxis.Data, absIg, absId, absIs
TestParameter, Output.Graph.YAxis.Scale, Log, Log, Log
TestParameter, Output.Graph.YAxis.Bottom, 0, 0, 0
TestParameter, Output.Graph.YAxis.Top, 1, 1, 1
TestParameter, Output.Graph.YAxis.Group, Group 1, Group 1, Group 1
TestParameter, Output.Graph.YAxis.RunTimeAutoScale, true, true, true
TestParameter, Output.List.Data, Vg, Vd, Ig, Id, Is, absIg, absId, absIs
TestParameter, AutoAnalysis.Interpolation, false
TestParameter, AutoAnalysis.Var2StepCount, 1
TestParameter, AutoAnalysis.Var2StepScript, 
TestParameter, AutoAnalysis.Line1.Enabled, false
TestParameter, AutoAnalysis.Line1.Type, 1
TestParameter, AutoAnalysis.Line1.Fix, True
TestParameter, AutoAnalysis.Line1.YAxis, 0
TestParameter, AutoAnalysis.Line1.Point1.Type, 0
TestParameter, AutoAnalysis.Line1.Point1.XY.X, 
TestParameter, AutoAnalysis.Line1.Point1.XY.Y, 
TestParameter, AutoAnalysis.Line1.Point1.Data.Var, 
TestParameter, AutoAnalysis.Line1.Point1.Data.Condition, 
TestParameter, AutoAnalysis.Line1.Point1.Data.Start, false
TestParameter, AutoAnalysis.Line1.Point1.Data.StartVar, 
TestParameter, AutoAnalysis.Line1.Point1.Data.StartCondition, 
TestParameter, AutoAnalysis.Line1.Point2.Type, 0
TestParameter, AutoAnalysis.Line1.Point2.XY.X, 
TestParameter, AutoAnalysis.Line1.Point2.XY.Y, 
TestParameter, AutoAnalysis.Line1.Point2.Data.Var, 
TestParameter, AutoAnalysis.Line1.Point2.Data.Condition, 
TestParameter, AutoAnalysis.Line1.Point2.Data.Start, false
TestParameter, AutoAnalysis.Line1.Point2.Data.StartVar, 
TestParameter, AutoAnalysis.Line1.Point2.Data.StartCondition, 
TestParameter, AutoAnalysis.Line1.GradientExpr, 0
TestParameter, AutoAnalysis.Line2.Enabled, false
TestParameter, AutoAnalysis.Line2.Type, 1
TestParameter, AutoAnalysis.Line2.Fix, True
TestParameter, AutoAnalysis.Line2.YAxis, 0
TestParameter, AutoAnalysis.Line2.Point1.Type, 0
TestParameter, AutoAnalysis.Line2.Point1.XY.X, 
TestParameter, AutoAnalysis.Line2.Point1.XY.Y, 
TestParameter, AutoAnalysis.Line2.Point1.Data.Var, 
TestParameter, AutoAnalysis.Line2.Point1.Data.Condition, 
TestParameter, AutoAnalysis.Line2.Point1.Data.Start, false
TestParameter, AutoAnalysis.Line2.Point1.Data.StartVar, 
TestParameter, AutoAnalysis.Line2.Point1.Data.StartCondition, 
TestParameter, AutoAnalysis.Line2.Point2.Type, 0
TestParameter, AutoAnalysis.Line2.Point2.XY.X, 
TestParameter, AutoAnalysis.Line2.Point2.XY.Y, 
TestParameter, AutoAnalysis.Line2.Point2.Data.Var, 
TestParameter, AutoAnalysis.Line2.Point2.Data.Condition, 
TestParameter, AutoAnalysis.Line2.Point2.Data.Start, false
TestParameter, AutoAnalysis.Line2.Point2.Data.StartVar, 
TestParameter, AutoAnalysis.Line2.Point2.Data.StartCondition, 
TestParameter, AutoAnalysis.Line2.GradientExpr, 0
TestParameter, AutoAnalysis.Marker.Enabled, false
TestParameter, AutoAnalysis.Marker.Data.Var, 
TestParameter, AutoAnalysis.Marker.Data.Condition, 
TestParameter, AutoAnalysis.Marker.Data.Start, false
TestParameter, AutoAnalysis.Marker.Data.StartVar, 
TestParameter, AutoAnalysis.Marker.Data.StartCondition, 
MetaData, TestRecord.EntryPoint, true
MetaData, TestRecord.RecordTime, 04/07/2025 16:41:30
MetaData, TestRecord.TestTarget, BGAF 3_1 106 W64-L6
MetaData, TestRecord.IterationIndex, 25
MetaData, TestRecord.Preservation, true
MetaData, TestRecord.Flag, 
MetaData, TestRecord.Remarks, 
MetaData, TestRecord.LinkKey, be34a13c-6495-4dda-996f-c6201da27d8c
MetaData, TestRecord.Parameters, 
Dimension1, 1302, 1302, 1302, 1302, 1302, 1302, 1302, 1302
Dimension2, 1, 1, 1, 1, 1, 1, 1, 1
DataName, Vg, Vd, Ig, Is, Id, absIg, absId, absIs
DataValue, -2.5, 1, -2.3020000000000002E-10, 2.3000000000000003E-13, 2.4993000000000004E-10, 2.3020000000000002E-10, 2.4993000000000004E-10, 2.3000000000000003E-13
DataValue, -2.4907500000000002, 1, -2.4321000000000003E-10, 3.8000000000000005E-13, 2.4422E-10, 2.4321000000000003E-10, 2.4422E-10, 3.8000000000000005E-13
DataValue, -2.4815, 1, -2.3562E-10, 1.5000000000000002E-13, 2.3782E-10, 2.3562E-10, 2.3782E-10, 1.5000000000000002E-13
DataValue, -2.47225, 1, -2.2877000000000003E-10, 4.3000000000000004E-13, 2.3092000000000002E-10, 2.2877000000000003E-10, 2.3092000000000002E-10, 4.3000000000000004E-13
DataValue, -2.463, 1, -2.2217000000000002E-10, 4E-13, 2.2306000000000003E-10, 2.2217000000000002E-10, 2.2306000000000003E-10, 4E-13
DataValue, -2.45375, 1, -2.1517000000000002E-10, 7.7000000000000005E-13, 2.1575E-10, 2.1517000000000002E-10, 2.1575E-10, 7.7000000000000005E-13
DataValue, -2.4445, 1, -2.0986E-10, -3.0000000000000003E-13, 2.1241000000000002E-10, 2.0986E-10, 2.1241000000000002E-10, 3.0000000000000003E-13
DataValue, -2.4355, 1, -2.0406000000000002E-10, -4.9E-13, 2.0636000000000003E-10, 2.0406000000000002E-10, 2.0636000000000003E-10, 4.9E-13
DataValue, -2.42625, 1, -1.9704000000000003E-10, -1.1000000000000001E-13, 2.0058000000000002E-10, 1.9704000000000003E-10, 2.0058000000000002E-10, 1.1000000000000001E-13
DataValue, -2.4170000000000003, 1, -1.9083000000000003E-10, -8.1000000000000008E-13, 1.9353E-10, 1.9083000000000003E-10, 1.9353E-10, 8.1000000000000008E-13
DataValue, -2.40775, 1, -1.8639000000000002E-10, -1.5000000000000002E-13, 1.8878000000000002E-10, 1.8639000000000002E-10, 1.8878000000000002E-10, 1.5000000000000002E-13
DataValue, -2.3985, 1, -1.8065000000000002E-10, -2.6E-13, 1.8238000000000002E-10, 1.8065000000000002E-10, 1.8238000000000002E-10, 2.6E-13
DataValue, -2.38925, 1, -1.7535000000000002E-10, 4.7E-13, 1.7568E-10, 1.7535000000000002E-10, 1.7568E-10, 4.7E-13
DataValue, -2.38, 1, -1.7106E-10, 1.2000000000000002E-13, 1.7022E-10, 1.7106E-10, 1.7022E-10, 1.2000000000000002E-13
DataValue, -2.37075, 1, -1.6578000000000002E-10, 4.6000000000000006E-13, 1.6550000000000002E-10, 1.6578000000000002E-10, 1.6550000000000002E-10, 4.6000000000000006E-13
DataValue, -2.3615, 1, -1.6235000000000001E-10, 8.6000000000000007E-13, 1.6268E-10, 1.6235000000000001E-10, 1.6268E-10, 8.6000000000000007E-13
DataValue, -2.35225, 1, -1.5835E-10, -3.4E-13, 1.5865000000000002E-10, 1.5835E-10, 1.5865000000000002E-10, 3.4E-13
DataValue, -2.343, 1, -1.5308E-10, 1.17E-12, 1.5302E-10, 1.5308E-10, 1.5302E-10, 1.17E-12
DataValue, -2.33375, 1, -1.4912000000000002E-10, 3.8000000000000005E-13, 1.4949000000000002E-10, 1.4912000000000002E-10, 1.4949000000000002E-10, 3.8000000000000005E-13
DataValue, -2.3245, 1, -1.4541000000000002E-10, 4.0000000000000006E-14, 1.4492E-10, 1.4541000000000002E-10, 1.4492E-10, 4.0000000000000006E-14
DataValue, -2.3155, 1, -1.4113E-10, -5.7E-13, 1.4127000000000002E-10, 1.4113E-10, 1.4127000000000002E-10, 5.7E-13
DataValue, -2.30625, 1, -1.3753000000000002E-10, 2.0000000000000003E-14, 1.3691000000000002E-10, 1.3753000000000002E-10, 1.3691000000000002E-10, 2.0000000000000003E-14
DataValue, -2.297, 1, -1.3452000000000002E-10, 8.4000000000000006E-13, 1.3264000000000002E-10, 1.3452000000000002E-10, 1.3264000000000002E-10, 8.4000000000000006E-13
DataValue, -2.28775, 1, -1.293E-10, -4.7E-13, 1.2854E-10, 1.293E-10, 1.2854E-10, 4.7E-13
DataValue, -2.2785, 1, -1.2693000000000002E-10, -4.8000000000000008E-13, 1.2544E-10, 1.2693000000000002E-10, 1.2544E-10, 4.8000000000000008E-13
DataValue, -2.26925, 1, -1.2217E-10, 1.1000000000000001E-13, 1.2069E-10, 1.2217E-10, 1.2069E-10, 1.1000000000000001E-13
DataValue, -2.2600000000000002, 1, -1.1943000000000002E-10, -4E-13, 1.1565000000000001E-10, 1.1943000000000002E-10, 1.1565000000000001E-10, 4E-13
DataValue, -2.25075, 1, -1.1545000000000001E-10, 4.6000000000000006E-13, 1.1225000000000001E-10, 1.1545000000000001E-10, 1.1225000000000001E-10, 4.6000000000000006E-13
DataValue, -2.2415, 1, -1.1143000000000001E-10, -9.2000000000000012E-13, 1.0778000000000002E-10, 1.1143000000000001E-10, 1.0778000000000002E-10, 9.2000000000000012E-13
DataValue, -2.23225, 1, -1.0716000000000001E-10, -1.4E-13, 1.0551E-10, 1.0716000000000001E-10, 1.0551E-10, 1.4E-13
DataValue, -2.223, 1, -1.0315000000000001E-10, -1.03E-12, 1.0219000000000001E-10, 1.0315000000000001E-10, 1.0219000000000001E-10, 1.03E-12
DataValue, -2.21375, 1, -9.848E-11, 1.4E-13, 9.92E-11, 9.848E-11, 9.92E-11, 1.4E-13
DataValue, -2.2045, 1, -9.609E-11, 1.0000000000000002E-14, 9.6560000000000013E-11, 9.609E-11, 9.6560000000000013E-11, 1.0000000000000002E-14
DataValue, -2.1955, 1, -9.2880000000000007E-11, -3.7000000000000004E-13, 9.454E-11, 9.2880000000000007E-11, 9.454E-11, 3.7000000000000004E-13
DataValue, -2.1862500000000002, 1, -9.007E-11, 6.3E-13, 9.143E-11, 9.007E-11, 9.143E-11, 6.3E-13
DataValue, -2.177, 1, -8.6670000000000009E-11, 6.8E-13, 8.768E-11, 8.6670000000000009E-11, 8.768E-11, 6.8E-13
DataValue, -2.16775, 1, -8.305E-11, 4.4000000000000004E-13, 8.607E-11, 8.305E-11, 8.607E-11, 4.4000000000000004E-13
DataValue, -2.1585, 1, -8.0720000000000007E-11, -2.2000000000000002E-13, 8.3640000000000008E-11, 8.0720000000000007E-11, 8.3640000000000008E-11, 2.2000000000000002E-13
DataValue, -2.14925, 1, -7.7540000000000011E-11, 1.1100000000000001E-12, 7.9230000000000007E-11, 7.7540000000000011E-11, 7.9230000000000007E-11, 1.1100000000000001E-12
DataValue, -2.14, 1, -7.535E-11, 5.5000000000000008E-13, 7.848000000000001E-11, 7.535E-11, 7.848000000000001E-11, 5.5000000000000008E-13
DataValue, -2.13075, 1, -7.2580000000000009E-11, -9.1000000000000016E-13, 7.596E-11, 7.2580000000000009E-11, 7.596E-11, 9.1000000000000016E-13
DataValue, -2.1215, 1, -6.9930000000000011E-11, 5E-14, 7.2610000000000008E-11, 6.9930000000000011E-11, 7.2610000000000008E-11, 5E-14
DataValue, -2.11225, 1, -6.801E-11, -1.12E-12, 7.124E-11, 6.801E-11, 7.124E-11, 1.12E-12
DataValue, -2.103, 1, -6.5440000000000009E-11, 9.0000000000000008E-14, 6.763E-11, 6.5440000000000009E-11, 6.763E-11, 9.0000000000000008E-14
DataValue, -2.09375, 1, -6.372E-11, -6.8E-13, 6.689E-11, 6.372E-11, 6.689E-11, 6.8E-13
DataValue, -2.0845000000000002, 1, -6.159E-11, -2.5E-13, 6.369E-11, 6.159E-11, 6.369E-11, 2.5E-13
DataValue, -2.0755, 1, -6.0560000000000009E-11, 1.3E-13, 6.1800000000000009E-11, 6.0560000000000009E-11, 6.1800000000000009E-11, 1.3E-13
DataValue, -2.06625, 1, -5.8520000000000008E-11, -5.1E-13, 6.057E-11, 5.8520000000000008E-11, 6.057E-11, 5.1E-13
DataValue, -2.057, 1, -5.842E-11, -3.4E-13, 5.881E-11, 5.842E-11, 5.881E-11, 3.4E-13
DataValue, -2.04775, 1, -5.652E-11, -5E-13, 5.6280000000000005E-11, 5.652E-11, 5.6280000000000005E-11, 5E-13
DataValue, -2.0385, 1, -5.5040000000000005E-11, 2.5E-13, 5.557E-11, 5.5040000000000005E-11, 5.557E-11, 2.5E-13
DataValue, -2.02925, 1, -5.3740000000000006E-11, 2.6E-13, 5.3520000000000006E-11, 5.3740000000000006E-11, 5.3520000000000006E-11, 2.6E-13
DataValue, -2.02, 1, -5.2250000000000007E-11, 5.8000000000000005E-13, 5.1180000000000004E-11, 5.2250000000000007E-11, 5.1180000000000004E-11, 5.8000000000000005E-13
DataValue, -2.0107500000000003, 1, -5.1430000000000004E-11, 8.7E-13, 5.1210000000000003E-11, 5.1430000000000004E-11, 5.1210000000000003E-11, 8.7E-13
DataValue, -2.0015, 1, -5.0060000000000006E-11, 1E-13, 4.9660000000000006E-11, 5.0060000000000006E-11, 4.9660000000000006E-11, 1E-13
DataValue, -1.99225, 1, -4.8520000000000004E-11, -7.6000000000000009E-13, 4.8160000000000005E-11, 4.8520000000000004E-11, 4.8160000000000005E-11, 7.6000000000000009E-13
DataValue, -1.983, 1, -4.7390000000000004E-11, -4.3000000000000004E-13, 4.712E-11, 4.7390000000000004E-11, 4.712E-11, 4.3000000000000004E-13
DataValue, -1.9737500000000001, 1, -4.61E-11, -1.26E-12, 4.657E-11, 4.61E-11, 4.657E-11, 1.26E-12
DataValue, -1.9645000000000001, 1, -4.5060000000000004E-11, -6.9000000000000009E-13, 4.3070000000000006E-11, 4.5060000000000004E-11, 4.3070000000000006E-11, 6.9000000000000009E-13
DataValue, -1.9555, 1, -4.3680000000000005E-11, -8.8000000000000009E-13, 4.21E-11, 4.3680000000000005E-11, 4.21E-11, 8.8000000000000009E-13
DataValue, -1.94625, 1, -4.3E-11, -5.9E-13, 3.937E-11, 4.3E-11, 3.937E-11, 5.9E-13
DataValue, -1.937, 1, -4.1320000000000006E-11, -2E-13, 3.692E-11, 4.1320000000000006E-11, 3.692E-11, 2E-13
DataValue, -1.92775, 1, -3.948E-11, -3.4E-13, 3.6510000000000005E-11, 3.948E-11, 3.6510000000000005E-11, 3.4E-13
DataValue, -1.9185, 1, -3.8180000000000004E-11, -3.2000000000000005E-13, 3.561E-11, 3.8180000000000004E-11, 3.561E-11, 3.2000000000000005E-13
DataValue, -1.9092500000000001, 1, -3.639E-11, -1.5000000000000002E-13, 3.453E-11, 3.639E-11, 3.453E-11, 1.5000000000000002E-13
DataValue, -1.9000000000000001, 1, -3.4500000000000004E-11, -5.1E-13, 3.35E-11, 3.4500000000000004E-11, 3.35E-11, 5.1E-13
DataValue, -1.89075, 1, -3.231E-11, 6.0000000000000009E-14, 3.1120000000000005E-11, 3.231E-11, 3.1120000000000005E-11, 6.0000000000000009E-14
DataValue, -1.8815, 1, -3.154E-11, 1.6600000000000002E-12, 3.242E-11, 3.154E-11, 3.242E-11, 1.6600000000000002E-12
DataValue, -1.87225, 1, -2.9840000000000004E-11, 1.8000000000000002E-13, 3.1590000000000004E-11, 2.9840000000000004E-11, 3.1590000000000004E-11, 1.8000000000000002E-13
DataValue, -1.863, 1, -2.8120000000000002E-11, 4.6000000000000006E-13, 3.056E-11, 2.8120000000000002E-11, 3.056E-11, 4.6000000000000006E-13
DataValue, -1.85375, 1, -2.7320000000000002E-11, -3.7000000000000004E-13, 3.031E-11, 2.7320000000000002E-11, 3.031E-11, 3.7000000000000004E-13
DataValue, -1.8445, 1, -2.613E-11, 4.8000000000000008E-13, 2.918E-11, 2.613E-11, 2.918E-11, 4.8000000000000008E-13
DataValue, -1.8355000000000001, 1, -2.489E-11, -6.5000000000000006E-13, 2.7030000000000003E-11, 2.489E-11, 2.7030000000000003E-11, 6.5000000000000006E-13
DataValue, -1.82625, 1, -2.3830000000000003E-11, -6.9000000000000009E-13, 2.6160000000000003E-11, 2.3830000000000003E-11, 2.6160000000000003E-11, 6.9000000000000009E-13
DataValue, -1.817, 1, -2.331E-11, -6.9000000000000009E-13, 2.502E-11, 2.331E-11, 2.502E-11, 6.9000000000000009E-13
DataValue, -1.80775, 1, -2.2660000000000002E-11, -9.9E-13, 2.4810000000000003E-11, 2.2660000000000002E-11, 2.4810000000000003E-11, 9.9E-13
DataValue, -1.7985, 1, -2.185E-11, 3.9000000000000005E-13, 2.4680000000000002E-11, 2.185E-11, 2.4680000000000002E-11, 3.9000000000000005E-13
DataValue, -1.78925, 1, -2.1350000000000003E-11, -3.3E-13, 2.3130000000000002E-11, 2.1350000000000003E-11, 2.3130000000000002E-11, 3.3E-13
DataValue, -1.78, 1, -2.067E-11, -1E-12, 2.1590000000000003E-11, 2.067E-11, 2.1590000000000003E-11, 1E-12
DataValue, -1.77075, 1, -2.0910000000000002E-11, -4E-13, 2.136E-11, 2.0910000000000002E-11, 2.136E-11, 4E-13
DataValue, -1.7615, 1, -2.054E-11, 8.1000000000000008E-13, 2.127E-11, 2.054E-11, 2.127E-11, 8.1000000000000008E-13
DataValue, -1.75225, 1, -2.005E-11, 7.5E-13, 2.0150000000000003E-11, 2.005E-11, 2.0150000000000003E-11, 7.5E-13
DataValue, -1.743, 1, -1.985E-11, 4.2000000000000003E-13, 1.875E-11, 1.985E-11, 1.875E-11, 4.2000000000000003E-13
DataValue, -1.7337500000000001, 1, -1.9730000000000003E-11, 1.7E-13, 1.8200000000000002E-11, 1.9730000000000003E-11, 1.8200000000000002E-11, 1.7E-13
DataValue, -1.7245000000000001, 1, -2.0480000000000003E-11, 3.2000000000000005E-13, 2.1420000000000002E-11, 2.0480000000000003E-11, 2.1420000000000002E-11, 3.2000000000000005E-13
DataValue, -1.7155, 1, -1.926E-11, -7E-14, 1.8780000000000002E-11, 1.926E-11, 1.8780000000000002E-11, 7E-14
DataValue, -1.70625, 1, -1.972E-11, 9.8E-13, 1.8730000000000003E-11, 1.972E-11, 1.8730000000000003E-11, 9.8E-13
DataValue, -1.697, 1, -1.8420000000000003E-11, 4.0000000000000006E-14, 1.717E-11, 1.8420000000000003E-11, 1.717E-11, 4.0000000000000006E-14
DataValue, -1.68775, 1, -1.8290000000000002E-11, -9.8E-13, 1.7780000000000002E-11, 1.8290000000000002E-11, 1.7780000000000002E-11, 9.8E-13
DataValue, -1.6785, 1, -1.79E-11, -5.7E-13, 1.624E-11, 1.79E-11, 1.624E-11, 5.7E-13
DataValue, -1.6692500000000001, 1, -1.6740000000000002E-11, -8.5000000000000011E-13, 1.462E-11, 1.6740000000000002E-11, 1.462E-11, 8.5000000000000011E-13
DataValue, -1.6600000000000001, 1, -1.642E-11, -3.0000000000000003E-13, 1.3450000000000001E-11, 1.642E-11, 1.3450000000000001E-11, 3.0000000000000003E-13
DataValue, -1.65075, 1, -1.5760000000000002E-11, -8.0000000000000013E-14, 1.3170000000000001E-11, 1.5760000000000002E-11, 1.3170000000000001E-11, 8.0000000000000013E-14
DataValue, -1.6415, 1, -1.493E-11, -9.2000000000000012E-13, 1.3790000000000002E-11, 1.493E-11, 1.3790000000000002E-11, 9.2000000000000012E-13
DataValue, -1.63225, 1, -1.4080000000000001E-11, 2.2000000000000002E-13, 1.2330000000000001E-11, 1.4080000000000001E-11, 1.2330000000000001E-11, 2.2000000000000002E-13
DataValue, -1.623, 1, -1.3440000000000001E-11, 9.0000000000000008E-14, 1.282E-11, 1.3440000000000001E-11, 1.282E-11, 9.0000000000000008E-14
DataValue, -1.61375, 1, -1.201E-11, 3.9000000000000005E-13, 1.1750000000000001E-11, 1.201E-11, 1.1750000000000001E-11, 3.9000000000000005E-13
DataValue, -1.6045, 1, -1.1560000000000002E-11, 1.1100000000000001E-12, 1.0320000000000001E-11, 1.1560000000000002E-11, 1.0320000000000001E-11, 1.1100000000000001E-12
