
SetupTitle, Vd=1V(-2.5,3.5)
PrimitiveTest, I/V Sweep
TestParameter, Context.MainFrame, B1500A
TestParameter, Channel.UnitType, SMU, SMU, SMU
TestParameter, Channel.Unit, SMU1:HR, SMU2:HR, SMU3:HR
TestParameter, Channel.IName, Ig, Is, Id
TestParameter, Channel.VName, Vg, Vs, Vd
TestParameter, Channel.Mode, V, V, V
TestParameter, Channel.Func, VAR1, CONST, CONST
TestParameter, Channel.Index, 
TestParameter, Channel.Time, 
TestParameter, Measurement.Port.Unit, SMU1:HR, SMU2:HR, SMU3:HR
TestParameter, Measurement.Port.SeriesResistor, NONE, NONE, NONE
TestParameter, Measurement.Port.Filter, ON, ON, ON
TestParameter, Measurement.Port.OutputVoltageComparison, 0, 0, 0
TestParameter, Measurement.Primary.Locus, Double
TestParameter, Measurement.Primary.Scale, LINEAR
TestParameter, Measurement.Primary.Start, -2.5
TestParameter, Measurement.Primary.Stop, 3.5
TestParameter, Measurement.Primary.Step, 0.00925
TestParameter, Measurement.Primary.Compliance, 0.1
TestParameter, Measurement.Primary.PowerCompliance, 0
TestParameter, Measurement.Aborting.Condition, CONTINUE AT ANY
TestParameter, Measurement.PostOutput.Value, START
TestParameter, Measurement.PostOutput.Retention, OFF
TestParameter, Measurement.Bias.Source, -2.5, 0, 1
TestParameter, Measurement.Bias.Compliance, 0.1, 0.1, 0.1
TestParameter, Measurement.Monitor.Unit, SMU1:HR, SMU2:HR, SMU3:HR
TestParameter, Measurement.Monitor.Adc, HR ADC, HR ADC, HR ADC
TestParameter, Measurement.Monitor.Measurement, Compliance Side, Compliance Side, Compliance Side
TestParameter, Measurement.Monitor.RangingMode, LIMITED, LIMITED, LIMITED
TestParameter, Measurement.Monitor.RangeBoundary, 1nA, 1nA, 1nA
TestParameter, Measurement.Monitor.RangeRating, BY FULL RANGE, BY FULL RANGE, BY FULL RANGE
TestParameter, Measurement.Monitor.RangeRatingCoeff, 50, 50, 50
TestParameter, Measurement.Timing.Hold, 0
TestParameter, Measurement.Timing.Delay, 0
TestParameter, Measurement.Adc.HighSpeed.Mode, AUTO
TestParameter, Measurement.Adc.HighSpeed.Coeff, 1
TestParameter, Measurement.Adc.HighResolution.AutoZero, OFF
TestParameter, Measurement.Adc.HighResolution.Mode, AUTO
TestParameter, Measurement.Adc.HighResolution.Coeff, 3
TestParameter, Measurement.WaitTime.Source.Coeff, 1
TestParameter, Measurement.WaitTime.Source.Offset, 0
TestParameter, Measurement.WaitTime.Monitor.Coeff, 1
TestParameter, Measurement.WaitTime.Monitor.Offset, 0
TestParameter, Function.User.Name, absIg, absId, absIs
TestParameter, Function.User.Unit, A, A, A
TestParameter, Function.User.Definition, abs(Ig), abs(Id), abs(Is)
TestParameter, Output.Graph.Enabled, true
TestParameter, Output.Graph.AutoScaling, false
TestParameter, Output.Graph.XAxis.Data, Vg
TestParameter, Output.Graph.XAxis.Scale, Linear
TestParameter, Output.Graph.XAxis.Left, -2.5
TestParameter, Output.Graph.XAxis.Right, 3.5
TestParameter, Output.Graph.XAxis.RunTimeAutoScale, true
TestParameter, Output.Graph.YAxis.Data, absIg, absId, absIs
TestParameter, Output.Graph.YAxis.Scale, Log, Log, Log
TestParameter, Output.Graph.YAxis.Bottom, 0, 0, 0
TestParameter, Output.Graph.YAxis.Top, 1, 1, 1
TestParameter, Output.Graph.YAxis.Group, Group 1, Group 1, Group 1
TestParameter, Output.Graph.YAxis.RunTimeAutoScale, true, true, true
TestParameter, Output.List.Data, Vg, Vd, Ig, Id, Is, absIg, absId, absIs
TestParameter, AutoAnalysis.Interpolation, false
TestParameter, AutoAnalysis.Var2StepCount, 1
TestParameter, AutoAnalysis.Var2StepScript, 
TestParameter, AutoAnalysis.Line1.Enabled, false
TestParameter, AutoAnalysis.Line1.Type, 1
TestParameter, AutoAnalysis.Line1.Fix, True
TestParameter, AutoAnalysis.Line1.YAxis, 0
TestParameter, AutoAnalysis.Line1.Point1.Type, 0
TestParameter, AutoAnalysis.Line1.Point1.XY.X, 
TestParameter, AutoAnalysis.Line1.Point1.XY.Y, 
TestParameter, AutoAnalysis.Line1.Point1.Data.Var, 
TestParameter, AutoAnalysis.Line1.Point1.Data.Condition, 
TestParameter, AutoAnalysis.Line1.Point1.Data.Start, false
TestParameter, AutoAnalysis.Line1.Point1.Data.StartVar, 
TestParameter, AutoAnalysis.Line1.Point1.Data.StartCondition, 
TestParameter, AutoAnalysis.Line1.Point2.Type, 0
TestParameter, AutoAnalysis.Line1.Point2.XY.X, 
TestParameter, AutoAnalysis.Line1.Point2.XY.Y, 
TestParameter, AutoAnalysis.Line1.Point2.Data.Var, 
TestParameter, AutoAnalysis.Line1.Point2.Data.Condition, 
TestParameter, AutoAnalysis.Line1.Point2.Data.Start, false
TestParameter, AutoAnalysis.Line1.Point2.Data.StartVar, 
TestParameter, AutoAnalysis.Line1.Point2.Data.StartCondition, 
TestParameter, AutoAnalysis.Line1.GradientExpr, 0
TestParameter, AutoAnalysis.Line2.Enabled, false
TestParameter, AutoAnalysis.Line2.Type, 1
TestParameter, AutoAnalysis.Line2.Fix, True
TestParameter, AutoAnalysis.Line2.YAxis, 0
TestParameter, AutoAnalysis.Line2.Point1.Type, 0
TestParameter, AutoAnalysis.Line2.Point1.XY.X, 
TestParameter, AutoAnalysis.Line2.Point1.XY.Y, 
TestParameter, AutoAnalysis.Line2.Point1.Data.Var, 
TestParameter, AutoAnalysis.Line2.Point1.Data.Condition, 
TestParameter, AutoAnalysis.Line2.Point1.Data.Start, false
TestParameter, AutoAnalysis.Line2.Point1.Data.StartVar, 
TestParameter, AutoAnalysis.Line2.Point1.Data.StartCondition, 
TestParameter, AutoAnalysis.Line2.Point2.Type, 0
TestParameter, AutoAnalysis.Line2.Point2.XY.X, 
TestParameter, AutoAnalysis.Line2.Point2.XY.Y, 
TestParameter, AutoAnalysis.Line2.Point2.Data.Var, 
TestParameter, AutoAnalysis.Line2.Point2.Data.Condition, 
TestParameter, AutoAnalysis.Line2.Point2.Data.Start, false
TestParameter, AutoAnalysis.Line2.Point2.Data.StartVar, 
TestParameter, AutoAnalysis.Line2.Point2.Data.StartCondition, 
TestParameter, AutoAnalysis.Line2.GradientExpr, 0
TestParameter, AutoAnalysis.Marker.Enabled, false
TestParameter, AutoAnalysis.Marker.Data.Var, 
TestParameter, AutoAnalysis.Marker.Data.Condition, 
TestParameter, AutoAnalysis.Marker.Data.Start, false
TestParameter, AutoAnalysis.Marker.Data.StartVar, 
TestParameter, AutoAnalysis.Marker.Data.StartCondition, 
MetaData, TestRecord.EntryPoint, true
MetaData, TestRecord.RecordTime, 04/07/2025 16:55:20
MetaData, TestRecord.TestTarget, BGAF 3_1 306 W64-L4
MetaData, TestRecord.IterationIndex, 36
MetaData, TestRecord.Preservation, true
MetaData, TestRecord.Flag, 
MetaData, TestRecord.Remarks, 
MetaData, TestRecord.LinkKey, 1849b5ae-5025-4017-ae65-ce520848a217
MetaData, TestRecord.Parameters, 
Dimension1, 1302, 1302, 1302, 1302, 1302, 1302, 1302, 1302
Dimension2, 1, 1, 1, 1, 1, 1, 1, 1
DataName, Vg, Vd, Ig, Is, Id, absIg, absId, absIs
DataValue, -2.5, 1, -1.9870000000000002E-10, -3.0000000000000003E-13, 2.0509E-10, 1.9870000000000002E-10, 2.0509E-10, 3.0000000000000003E-13
DataValue, -2.4907500000000002, 1, -1.9651000000000003E-10, -2.9000000000000003E-13, 1.9837E-10, 1.9651000000000003E-10, 1.9837E-10, 2.9000000000000003E-13
DataValue, -2.4815, 1, -1.9081E-10, -3.7000000000000004E-13, 1.9382E-10, 1.9081E-10, 1.9382E-10, 3.7000000000000004E-13
DataValue, -2.47225, 1, -1.8588E-10, -4.3000000000000004E-13, 1.8831000000000002E-10, 1.8588E-10, 1.8831000000000002E-10, 4.3000000000000004E-13
DataValue, -2.463, 1, -1.8049000000000002E-10, 1.2000000000000002E-13, 1.8359E-10, 1.8049000000000002E-10, 1.8359E-10, 1.2000000000000002E-13
DataValue, -2.45375, 1, -1.7443E-10, 3.0000000000000003E-13, 1.765E-10, 1.7443E-10, 1.765E-10, 3.0000000000000003E-13
DataValue, -2.4445, 1, -1.6980000000000002E-10, -8E-13, 1.7155000000000002E-10, 1.6980000000000002E-10, 1.7155000000000002E-10, 8E-13
DataValue, -2.4355, 1, -1.656E-10, -6.400000000000001E-13, 1.6512000000000002E-10, 1.656E-10, 1.6512000000000002E-10, 6.400000000000001E-13
DataValue, -2.42625, 1, -1.6113000000000002E-10, 4.0000000000000006E-14, 1.6078E-10, 1.6113000000000002E-10, 1.6078E-10, 4.0000000000000006E-14
DataValue, -2.4170000000000003, 1, -1.576E-10, 1.1900000000000002E-12, 1.5796000000000002E-10, 1.576E-10, 1.5796000000000002E-10, 1.1900000000000002E-12
DataValue, -2.40775, 1, -1.5343E-10, 9.7000000000000011E-13, 1.5181000000000002E-10, 1.5343E-10, 1.5181000000000002E-10, 9.7000000000000011E-13
DataValue, -2.3985, 1, -1.5029E-10, 2.9000000000000003E-13, 1.4887E-10, 1.5029E-10, 1.4887E-10, 2.9000000000000003E-13
DataValue, -2.38925, 1, -1.4528000000000001E-10, 2.1000000000000001E-13, 1.4512E-10, 1.4528000000000001E-10, 1.4512E-10, 2.1000000000000001E-13
DataValue, -2.38, 1, -1.4107E-10, -5E-14, 1.4126E-10, 1.4107E-10, 1.4126E-10, 5E-14
DataValue, -2.37075, 1, -1.3659000000000002E-10, 8.9E-13, 1.3654E-10, 1.3659000000000002E-10, 1.3654E-10, 8.9E-13
DataValue, -2.3615, 1, -1.34E-10, -4.2000000000000003E-13, 1.3302000000000002E-10, 1.34E-10, 1.3302000000000002E-10, 4.2000000000000003E-13
DataValue, -2.35225, 1, -1.2993E-10, -2.8E-13, 1.2897000000000002E-10, 1.2993E-10, 1.2897000000000002E-10, 2.8E-13
DataValue, -2.343, 1, -1.2618E-10, -7.7000000000000005E-13, 1.2414E-10, 1.2618E-10, 1.2414E-10, 7.7000000000000005E-13
DataValue, -2.33375, 1, -1.2312E-10, -7.7000000000000005E-13, 1.2069E-10, 1.2312E-10, 1.2069E-10, 7.7000000000000005E-13
DataValue, -2.3245, 1, -1.1664E-10, -9.0000000000000008E-14, 1.1358000000000001E-10, 1.1664E-10, 1.1358000000000001E-10, 9.0000000000000008E-14
DataValue, -2.3155, 1, -1.1427000000000001E-10, -4.9E-13, 1.1142000000000001E-10, 1.1427000000000001E-10, 1.1142000000000001E-10, 4.9E-13
DataValue, -2.30625, 1, -1.1019000000000001E-10, -7E-14, 1.0797E-10, 1.1019000000000001E-10, 1.0797E-10, 7E-14
DataValue, -2.297, 1, -1.0603000000000001E-10, -8E-13, 1.0471E-10, 1.0603000000000001E-10, 1.0471E-10, 8E-13
DataValue, -2.28775, 1, -1.0165E-10, 7.8000000000000011E-13, 1.0111000000000001E-10, 1.0165E-10, 1.0111000000000001E-10, 7.8000000000000011E-13
DataValue, -2.2785, 1, -9.9180000000000013E-11, 6.2000000000000008E-13, 9.7860000000000012E-11, 9.9180000000000013E-11, 9.7860000000000012E-11, 6.2000000000000008E-13
DataValue, -2.26925, 1, -9.541000000000001E-11, 6.0000000000000009E-14, 9.461000000000001E-11, 9.541000000000001E-11, 9.461000000000001E-11, 6.0000000000000009E-14
DataValue, -2.2600000000000002, 1, -9.2040000000000013E-11, 6.2000000000000008E-13, 9.1790000000000013E-11, 9.2040000000000013E-11, 9.1790000000000013E-11, 6.2000000000000008E-13
DataValue, -2.25075, 1, -8.8210000000000011E-11, 4.3000000000000004E-13, 8.893000000000001E-11, 8.8210000000000011E-11, 8.893000000000001E-11, 4.3000000000000004E-13
DataValue, -2.2415, 1, -8.467E-11, 8.7E-13, 8.642000000000001E-11, 8.467E-11, 8.642000000000001E-11, 8.7E-13
DataValue, -2.23225, 1, -8.1740000000000007E-11, 2.7E-13, 8.509E-11, 8.1740000000000007E-11, 8.509E-11, 2.7E-13
DataValue, -2.223, 1, -7.8040000000000009E-11, 2.7E-13, 8.1600000000000008E-11, 7.8040000000000009E-11, 8.1600000000000008E-11, 2.7E-13
DataValue, -2.21375, 1, -7.6820000000000012E-11, 7E-14, 7.9800000000000011E-11, 7.6820000000000012E-11, 7.9800000000000011E-11, 7E-14
DataValue, -2.2045, 1, -7.5140000000000011E-11, -2.6E-13, 7.701E-11, 7.5140000000000011E-11, 7.701E-11, 2.6E-13
DataValue, -2.1955, 1, -7.193E-11, -1.0000000000000002E-14, 7.477E-11, 7.193E-11, 7.477E-11, 1.0000000000000002E-14
DataValue, -2.1862500000000002, 1, -6.9990000000000009E-11, -1.1100000000000001E-12, 7.232E-11, 6.9990000000000009E-11, 7.232E-11, 1.1100000000000001E-12
DataValue, -2.177, 1, -6.7040000000000008E-11, -8.9E-13, 6.931E-11, 6.7040000000000008E-11, 6.931E-11, 8.9E-13
DataValue, -2.16775, 1, -6.5600000000000011E-11, 1.12E-12, 6.9770000000000008E-11, 6.5600000000000011E-11, 6.9770000000000008E-11, 1.12E-12
DataValue, -2.1585, 1, -6.355E-11, -1.1100000000000001E-12, 6.355E-11, 6.355E-11, 6.355E-11, 1.1100000000000001E-12
DataValue, -2.14925, 1, -6.1410000000000011E-11, -4E-13, 6.14E-11, 6.1410000000000011E-11, 6.14E-11, 4E-13
DataValue, -2.14, 1, -5.996E-11, 8.6000000000000007E-13, 5.9210000000000008E-11, 5.996E-11, 5.9210000000000008E-11, 8.6000000000000007E-13
DataValue, -2.13075, 1, -5.7800000000000003E-11, -1.7E-13, 5.912E-11, 5.7800000000000003E-11, 5.912E-11, 1.7E-13
DataValue, -2.1215, 1, -5.7510000000000004E-11, 5.5000000000000008E-13, 5.739E-11, 5.7510000000000004E-11, 5.739E-11, 5.5000000000000008E-13
DataValue, -2.11225, 1, -5.5920000000000006E-11, 1.31E-12, 5.5690000000000004E-11, 5.5920000000000006E-11, 5.5690000000000004E-11, 1.31E-12
DataValue, -2.103, 1, -5.3980000000000004E-11, -1.0000000000000002E-14, 5.434E-11, 5.3980000000000004E-11, 5.434E-11, 1.0000000000000002E-14
DataValue, -2.09375, 1, -5.2830000000000007E-11, 4.4000000000000004E-13, 5.288E-11, 5.2830000000000007E-11, 5.288E-11, 4.4000000000000004E-13
DataValue, -2.0845000000000002, 1, -5.1960000000000007E-11, 1.13E-12, 5.102E-11, 5.1960000000000007E-11, 5.102E-11, 1.13E-12
DataValue, -2.0755, 1, -5.1190000000000006E-11, 7.8000000000000011E-13, 4.986E-11, 5.1190000000000006E-11, 4.986E-11, 7.8000000000000011E-13
DataValue, -2.06625, 1, -4.9410000000000007E-11, -4E-13, 4.8570000000000006E-11, 4.9410000000000007E-11, 4.8570000000000006E-11, 4E-13
DataValue, -2.057, 1, -4.807E-11, -5.4E-13, 4.731E-11, 4.807E-11, 4.731E-11, 5.4E-13
DataValue, -2.04775, 1, -4.716E-11, -7.9000000000000007E-13, 4.614E-11, 4.716E-11, 4.614E-11, 7.9000000000000007E-13
DataValue, -2.0385, 1, -4.57E-11, 2.0000000000000003E-14, 4.5100000000000005E-11, 4.57E-11, 4.5100000000000005E-11, 2.0000000000000003E-14
DataValue, -2.02925, 1, -4.384E-11, -1.08E-12, 4.344E-11, 4.384E-11, 4.344E-11, 1.08E-12
DataValue, -2.02, 1, -4.2050000000000006E-11, -1.1500000000000002E-12, 3.9450000000000003E-11, 4.2050000000000006E-11, 3.9450000000000003E-11, 1.1500000000000002E-12
DataValue, -2.0107500000000003, 1, -3.9680000000000005E-11, -2.8E-13, 3.7010000000000003E-11, 3.9680000000000005E-11, 3.7010000000000003E-11, 2.8E-13
DataValue, -2.0015, 1, -3.911E-11, 3.1000000000000004E-13, 3.726E-11, 3.911E-11, 3.726E-11, 3.1000000000000004E-13
DataValue, -1.99225, 1, -3.7630000000000003E-11, -5.5000000000000008E-13, 3.5200000000000005E-11, 3.7630000000000003E-11, 3.5200000000000005E-11, 5.5000000000000008E-13
DataValue, -1.983, 1, -3.58E-11, -3.8000000000000005E-13, 3.365E-11, 3.58E-11, 3.365E-11, 3.8000000000000005E-13
DataValue, -1.9737500000000001, 1, -3.412E-11, 9.2000000000000012E-13, 3.2980000000000005E-11, 3.412E-11, 3.2980000000000005E-11, 9.2000000000000012E-13
DataValue, -1.9645000000000001, 1, -3.216E-11, 2.1000000000000001E-13, 3.2870000000000005E-11, 3.216E-11, 3.2870000000000005E-11, 2.1000000000000001E-13
DataValue, -1.9555, 1, -3.14E-11, 1.1500000000000002E-12, 3.1080000000000004E-11, 3.14E-11, 3.1080000000000004E-11, 1.1500000000000002E-12
DataValue, -1.94625, 1, -2.978E-11, 3.1000000000000004E-13, 3.08E-11, 2.978E-11, 3.08E-11, 3.1000000000000004E-13
DataValue, -1.937, 1, -2.8360000000000003E-11, 4.2000000000000003E-13, 2.9700000000000005E-11, 2.8360000000000003E-11, 2.9700000000000005E-11, 4.2000000000000003E-13
DataValue, -1.92775, 1, -2.675E-11, 1.23E-12, 3.009E-11, 2.675E-11, 3.009E-11, 1.23E-12
DataValue, -1.9185, 1, -2.5980000000000004E-11, 3.5E-13, 2.918E-11, 2.5980000000000004E-11, 2.918E-11, 3.5E-13
DataValue, -1.9092500000000001, 1, -2.4810000000000003E-11, 6.7000000000000007E-13, 2.8650000000000003E-11, 2.4810000000000003E-11, 2.8650000000000003E-11, 6.7000000000000007E-13
DataValue, -1.9000000000000001, 1, -2.3300000000000003E-11, -4.7E-13, 2.744E-11, 2.3300000000000003E-11, 2.744E-11, 4.7E-13
DataValue, -1.89075, 1, -2.303E-11, -8.0000000000000013E-14, 2.555E-11, 2.303E-11, 2.555E-11, 8.0000000000000013E-14
DataValue, -1.8815, 1, -2.1310000000000002E-11, -2.2000000000000002E-13, 2.3500000000000003E-11, 2.1310000000000002E-11, 2.3500000000000003E-11, 2.2000000000000002E-13
DataValue, -1.87225, 1, -2.028E-11, -1.69E-12, 2.351E-11, 2.028E-11, 2.351E-11, 1.69E-12
DataValue, -1.863, 1, -2.112E-11, -3.9000000000000005E-13, 2.3390000000000003E-11, 2.112E-11, 2.3390000000000003E-11, 3.9000000000000005E-13
DataValue, -1.85375, 1, -2.0400000000000002E-11, -1.09E-12, 2.1170000000000003E-11, 2.0400000000000002E-11, 2.1170000000000003E-11, 1.09E-12
DataValue, -1.8445, 1, -1.981E-11, 3.2000000000000005E-13, 2.092E-11, 1.981E-11, 2.092E-11, 3.2000000000000005E-13
DataValue, -1.8355000000000001, 1, -1.9750000000000003E-11, 1.9000000000000002E-13, 2.0930000000000002E-11, 1.9750000000000003E-11, 2.0930000000000002E-11, 1.9000000000000002E-13
DataValue, -1.82625, 1, -1.9220000000000003E-11, 4.0000000000000006E-14, 1.934E-11, 1.9220000000000003E-11, 1.934E-11, 4.0000000000000006E-14
DataValue, -1.817, 1, -1.823E-11, 6.9000000000000009E-13, 1.992E-11, 1.823E-11, 1.992E-11, 6.9000000000000009E-13
DataValue, -1.80775, 1, -1.917E-11, 4.8000000000000008E-13, 1.835E-11, 1.917E-11, 1.835E-11, 4.8000000000000008E-13
DataValue, -1.7985, 1, -1.848E-11, 7.7000000000000005E-13, 1.832E-11, 1.848E-11, 1.832E-11, 7.7000000000000005E-13
DataValue, -1.78925, 1, -1.934E-11, 2.3000000000000003E-13, 1.786E-11, 1.934E-11, 1.786E-11, 2.3000000000000003E-13
DataValue, -1.78, 1, -1.926E-11, 5.4E-13, 1.7850000000000002E-11, 1.926E-11, 1.7850000000000002E-11, 5.4E-13
DataValue, -1.77075, 1, -1.699E-11, 3.0000000000000003E-13, 1.764E-11, 1.699E-11, 1.764E-11, 3.0000000000000003E-13
DataValue, -1.7615, 1, -1.799E-11, -5.7E-13, 1.7270000000000002E-11, 1.799E-11, 1.7270000000000002E-11, 5.7E-13
DataValue, -1.75225, 1, -1.7160000000000002E-11, -1.1000000000000001E-13, 1.475E-11, 1.7160000000000002E-11, 1.475E-11, 1.1000000000000001E-13
DataValue, -1.743, 1, -1.6890000000000003E-11, 1.3E-13, 1.6960000000000002E-11, 1.6890000000000003E-11, 1.6960000000000002E-11, 1.3E-13
DataValue, -1.7337500000000001, 1, -1.6090000000000003E-11, -5.2E-13, 1.5320000000000002E-11, 1.6090000000000003E-11, 1.5320000000000002E-11, 5.2E-13
DataValue, -1.7245000000000001, 1, -1.675E-11, -8.2E-13, 1.58E-11, 1.675E-11, 1.58E-11, 8.2E-13
DataValue, -1.7155, 1, -1.555E-11, -1.07E-12, 1.3740000000000001E-11, 1.555E-11, 1.3740000000000001E-11, 1.07E-12
DataValue, -1.70625, 1, -1.52E-11, -6.0000000000000007E-13, 1.1960000000000002E-11, 1.52E-11, 1.1960000000000002E-11, 6.0000000000000007E-13
DataValue, -1.697, 1, -1.471E-11, 5.9E-13, 1.14E-11, 1.471E-11, 1.14E-11, 5.9E-13
DataValue, -1.68775, 1, -1.259E-11, -5.6E-13, 1.159E-11, 1.259E-11, 1.159E-11, 5.6E-13
DataValue, -1.6785, 1, -1.2850000000000001E-11, 0, 1.089E-11, 1.2850000000000001E-11, 1.089E-11, 0
DataValue, -1.6692500000000001, 1, -1.2440000000000001E-11, 5.9E-13, 1.036E-11, 1.2440000000000001E-11, 1.036E-11, 5.9E-13
DataValue, -1.6600000000000001, 1, -1.137E-11, -3.3E-13, 1.0810000000000001E-11, 1.137E-11, 1.0810000000000001E-11, 3.3E-13
DataValue, -1.65075, 1, -1.0840000000000002E-11, 6.7000000000000007E-13, 1.18E-11, 1.0840000000000002E-11, 1.18E-11, 6.7000000000000007E-13
DataValue, -1.6415, 1, -9.55E-12, 1.9000000000000002E-13, 9.96E-12, 9.55E-12, 9.96E-12, 1.9000000000000002E-13
DataValue, -1.63225, 1, -8.96E-12, -2.0000000000000003E-14, 9.9900000000000009E-12, 8.96E-12, 9.9900000000000009E-12, 2.0000000000000003E-14
DataValue, -1.623, 1, -7.2000000000000008E-12, 1.4E-13, 9.78E-12, 7.2000000000000008E-12, 9.78E-12, 1.4E-13
DataValue, -1.61375, 1, -7.1800000000000005E-12, 3.2000000000000005E-13, 1.0300000000000001E-11, 7.1800000000000005E-12, 1.0300000000000001E-11, 3.2000000000000005E-13
DataValue, -1.6045, 1, -6.8200000000000004E-12, 9.000000000000001E-13, 8.7900000000000011E-12, 6.8200000000000004E-12, 8.7900000000000011E-12, 9.000000000000001E-13
DataValue, -1.5955000000000001, 1, -5.6E-12, 1E-13, 8.1000000000000014E-12, 5.6E-12, 8.1000000000000014E-12, 1E-13
DataValue, -1.58625, 1, -6.2700000000000005E-12, -7.6000000000000009E-13, 9.0900000000000011E-12, 6.2700000000000005E-12, 9.0900000000000011E-12, 7.6000000000000009E-13
DataValue, -1.577, 1, -5.6600000000000005E-12, -3.5E-13, 8.1800000000000011E-12, 5.6600000000000005E-12, 8.1800000000000011E-12, 3.5E-13
DataValue, -1.56775, 1, -4.77E-12, -4.9E-13, 7.7900000000000013E-12, 4.77E-12, 7.7900000000000013E-12, 4.9E-13
