
SetupTitle, Vd=1V(-2.5,3.5)
PrimitiveTest, I/V Sweep
TestParameter, Context.MainFrame, B1500A
TestParameter, Channel.UnitType, SMU, SMU, SMU
TestParameter, Channel.Unit, SMU1:HR, SMU2:HR, SMU3:HR
TestParameter, Channel.IName, Ig, Is, Id
TestParameter, Channel.VName, Vg, Vs, Vd
TestParameter, Channel.Mode, V, V, V
TestParameter, Channel.Func, VAR1, CONST, CONST
TestParameter, Channel.Index, 
TestParameter, Channel.Time, 
TestParameter, Measurement.Port.Unit, SMU1:HR, SMU2:HR, SMU3:HR
TestParameter, Measurement.Port.SeriesResistor, NONE, NONE, NONE
TestParameter, Measurement.Port.Filter, ON, ON, ON
TestParameter, Measurement.Port.OutputVoltageComparison, 0, 0, 0
TestParameter, Measurement.Primary.Locus, Double
TestParameter, Measurement.Primary.Scale, LINEAR
TestParameter, Measurement.Primary.Start, -2.5
TestParameter, Measurement.Primary.Stop, 3.5
TestParameter, Measurement.Primary.Step, 0.00925
TestParameter, Measurement.Primary.Compliance, 0.1
TestParameter, Measurement.Primary.PowerCompliance, 0
TestParameter, Measurement.Aborting.Condition, CONTINUE AT ANY
TestParameter, Measurement.PostOutput.Value, START
TestParameter, Measurement.PostOutput.Retention, OFF
TestParameter, Measurement.Bias.Source, -2.5, 0, 1
TestParameter, Measurement.Bias.Compliance, 0.1, 0.1, 0.1
TestParameter, Measurement.Monitor.Unit, SMU1:HR, SMU2:HR, SMU3:HR
TestParameter, Measurement.Monitor.Adc, HR ADC, HR ADC, HR ADC
TestParameter, Measurement.Monitor.Measurement, Compliance Side, Compliance Side, Compliance Side
TestParameter, Measurement.Monitor.RangingMode, LIMITED, LIMITED, LIMITED
TestParameter, Measurement.Monitor.RangeBoundary, 1nA, 1nA, 1nA
TestParameter, Measurement.Monitor.RangeRating, BY FULL RANGE, BY FULL RANGE, BY FULL RANGE
TestParameter, Measurement.Monitor.RangeRatingCoeff, 50, 50, 50
TestParameter, Measurement.Timing.Hold, 0
TestParameter, Measurement.Timing.Delay, 0
TestParameter, Measurement.Adc.HighSpeed.Mode, AUTO
TestParameter, Measurement.Adc.HighSpeed.Coeff, 1
TestParameter, Measurement.Adc.HighResolution.AutoZero, OFF
TestParameter, Measurement.Adc.HighResolution.Mode, AUTO
TestParameter, Measurement.Adc.HighResolution.Coeff, 3
TestParameter, Measurement.WaitTime.Source.Coeff, 1
TestParameter, Measurement.WaitTime.Source.Offset, 0
TestParameter, Measurement.WaitTime.Monitor.Coeff, 1
TestParameter, Measurement.WaitTime.Monitor.Offset, 0
TestParameter, Function.User.Name, absIg, absId, absIs
TestParameter, Function.User.Unit, A, A, A
TestParameter, Function.User.Definition, abs(Ig), abs(Id), abs(Is)
TestParameter, Output.Graph.Enabled, true
TestParameter, Output.Graph.AutoScaling, false
TestParameter, Output.Graph.XAxis.Data, Vg
TestParameter, Output.Graph.XAxis.Scale, Linear
TestParameter, Output.Graph.XAxis.Left, -2.5
TestParameter, Output.Graph.XAxis.Right, 3.5
TestParameter, Output.Graph.XAxis.RunTimeAutoScale, true
TestParameter, Output.Graph.YAxis.Data, absIg, absId, absIs
TestParameter, Output.Graph.YAxis.Scale, Log, Log, Log
TestParameter, Output.Graph.YAxis.Bottom, 0, 0, 0
TestParameter, Output.Graph.YAxis.Top, 1, 1, 1
TestParameter, Output.Graph.YAxis.Group, Group 1, Group 1, Group 1
TestParameter, Output.Graph.YAxis.RunTimeAutoScale, true, true, true
TestParameter, Output.List.Data, Vg, Vd, Ig, Id, Is, absIg, absId, absIs
TestParameter, AutoAnalysis.Interpolation, false
TestParameter, AutoAnalysis.Var2StepCount, 1
TestParameter, AutoAnalysis.Var2StepScript, 
TestParameter, AutoAnalysis.Line1.Enabled, false
TestParameter, AutoAnalysis.Line1.Type, 1
TestParameter, AutoAnalysis.Line1.Fix, True
TestParameter, AutoAnalysis.Line1.YAxis, 0
TestParameter, AutoAnalysis.Line1.Point1.Type, 0
TestParameter, AutoAnalysis.Line1.Point1.XY.X, 
TestParameter, AutoAnalysis.Line1.Point1.XY.Y, 
TestParameter, AutoAnalysis.Line1.Point1.Data.Var, 
TestParameter, AutoAnalysis.Line1.Point1.Data.Condition, 
TestParameter, AutoAnalysis.Line1.Point1.Data.Start, false
TestParameter, AutoAnalysis.Line1.Point1.Data.StartVar, 
TestParameter, AutoAnalysis.Line1.Point1.Data.StartCondition, 
TestParameter, AutoAnalysis.Line1.Point2.Type, 0
TestParameter, AutoAnalysis.Line1.Point2.XY.X, 
TestParameter, AutoAnalysis.Line1.Point2.XY.Y, 
TestParameter, AutoAnalysis.Line1.Point2.Data.Var, 
TestParameter, AutoAnalysis.Line1.Point2.Data.Condition, 
TestParameter, AutoAnalysis.Line1.Point2.Data.Start, false
TestParameter, AutoAnalysis.Line1.Point2.Data.StartVar, 
TestParameter, AutoAnalysis.Line1.Point2.Data.StartCondition, 
TestParameter, AutoAnalysis.Line1.GradientExpr, 0
TestParameter, AutoAnalysis.Line2.Enabled, false
TestParameter, AutoAnalysis.Line2.Type, 1
TestParameter, AutoAnalysis.Line2.Fix, True
TestParameter, AutoAnalysis.Line2.YAxis, 0
TestParameter, AutoAnalysis.Line2.Point1.Type, 0
TestParameter, AutoAnalysis.Line2.Point1.XY.X, 
TestParameter, AutoAnalysis.Line2.Point1.XY.Y, 
TestParameter, AutoAnalysis.Line2.Point1.Data.Var, 
TestParameter, AutoAnalysis.Line2.Point1.Data.Condition, 
TestParameter, AutoAnalysis.Line2.Point1.Data.Start, false
TestParameter, AutoAnalysis.Line2.Point1.Data.StartVar, 
TestParameter, AutoAnalysis.Line2.Point1.Data.StartCondition, 
TestParameter, AutoAnalysis.Line2.Point2.Type, 0
TestParameter, AutoAnalysis.Line2.Point2.XY.X, 
TestParameter, AutoAnalysis.Line2.Point2.XY.Y, 
TestParameter, AutoAnalysis.Line2.Point2.Data.Var, 
TestParameter, AutoAnalysis.Line2.Point2.Data.Condition, 
TestParameter, AutoAnalysis.Line2.Point2.Data.Start, false
TestParameter, AutoAnalysis.Line2.Point2.Data.StartVar, 
TestParameter, AutoAnalysis.Line2.Point2.Data.StartCondition, 
TestParameter, AutoAnalysis.Line2.GradientExpr, 0
TestParameter, AutoAnalysis.Marker.Enabled, false
TestParameter, AutoAnalysis.Marker.Data.Var, 
TestParameter, AutoAnalysis.Marker.Data.Condition, 
TestParameter, AutoAnalysis.Marker.Data.Start, false
TestParameter, AutoAnalysis.Marker.Data.StartVar, 
TestParameter, AutoAnalysis.Marker.Data.StartCondition, 
MetaData, TestRecord.EntryPoint, true
MetaData, TestRecord.RecordTime, 04/07/2025 16:20:05
MetaData, TestRecord.TestTarget, BGAF 3_1 203 W36-L8
MetaData, TestRecord.IterationIndex, 12
MetaData, TestRecord.Preservation, true
MetaData, TestRecord.Flag, 
MetaData, TestRecord.Remarks, 
MetaData, TestRecord.LinkKey, 54bef2fd-52de-4913-9c72-f4f5dfcac8c7
MetaData, TestRecord.Parameters, 
Dimension1, 1302, 1302, 1302, 1302, 1302, 1302, 1302, 1302
Dimension2, 1, 1, 1, 1, 1, 1, 1, 1
DataName, Vg, Vd, Ig, Is, Id, absIg, absId, absIs
DataValue, -2.5, 1, -1.1932E-10, 8.9E-13, 1.1518000000000001E-10, 1.1932E-10, 1.1518000000000001E-10, 8.9E-13
DataValue, -2.4907500000000002, 1, -1.1161E-10, 4.2000000000000003E-13, 1.1046000000000001E-10, 1.1161E-10, 1.1046000000000001E-10, 4.2000000000000003E-13
DataValue, -2.4815, 1, -1.0843000000000001E-10, -6.0000000000000007E-13, 1.0557E-10, 1.0843000000000001E-10, 1.0557E-10, 6.0000000000000007E-13
DataValue, -2.47225, 1, -1.0330000000000001E-10, -2.7E-13, 1.0083E-10, 1.0330000000000001E-10, 1.0083E-10, 2.7E-13
DataValue, -2.463, 1, -1.0046000000000001E-10, 1.2000000000000002E-13, 9.5720000000000007E-11, 1.0046000000000001E-10, 9.5720000000000007E-11, 1.2000000000000002E-13
DataValue, -2.45375, 1, -9.658E-11, 2.1000000000000001E-13, 9.1900000000000014E-11, 9.658E-11, 9.1900000000000014E-11, 2.1000000000000001E-13
DataValue, -2.4445, 1, -9.2320000000000011E-11, 9.0000000000000008E-14, 8.988E-11, 9.2320000000000011E-11, 8.988E-11, 9.0000000000000008E-14
DataValue, -2.4355, 1, -8.8990000000000008E-11, 1.03E-12, 8.8870000000000012E-11, 8.8990000000000008E-11, 8.8870000000000012E-11, 1.03E-12
DataValue, -2.42625, 1, -8.6910000000000013E-11, 8.5000000000000011E-13, 8.5350000000000008E-11, 8.6910000000000013E-11, 8.5350000000000008E-11, 8.5000000000000011E-13
DataValue, -2.4170000000000003, 1, -8.369000000000001E-11, 5.3000000000000006E-13, 8.415E-11, 8.369000000000001E-11, 8.415E-11, 5.3000000000000006E-13
DataValue, -2.40775, 1, -8.075E-11, 9.7000000000000011E-13, 8.199E-11, 8.075E-11, 8.199E-11, 9.7000000000000011E-13
DataValue, -2.3985, 1, -7.6740000000000011E-11, 1.36E-12, 7.69E-11, 7.6740000000000011E-11, 7.69E-11, 1.36E-12
DataValue, -2.38925, 1, -7.372E-11, 2.6E-13, 7.602E-11, 7.372E-11, 7.602E-11, 2.6E-13
DataValue, -2.38, 1, -7.062000000000001E-11, 3.6000000000000003E-13, 7.3520000000000008E-11, 7.062000000000001E-11, 7.3520000000000008E-11, 3.6000000000000003E-13
DataValue, -2.37075, 1, -6.8890000000000007E-11, 2.0000000000000003E-14, 7.155E-11, 6.8890000000000007E-11, 7.155E-11, 2.0000000000000003E-14
DataValue, -2.3615, 1, -6.625E-11, 1.0000000000000002E-14, 6.8280000000000009E-11, 6.625E-11, 6.8280000000000009E-11, 1.0000000000000002E-14
DataValue, -2.35225, 1, -6.444E-11, -7.3E-13, 6.604E-11, 6.444E-11, 6.604E-11, 7.3E-13
DataValue, -2.343, 1, -6.127E-11, -5.4E-13, 6.344E-11, 6.127E-11, 6.344E-11, 5.4E-13
DataValue, -2.33375, 1, -5.9480000000000011E-11, 1.6000000000000003E-13, 6.253E-11, 5.9480000000000011E-11, 6.253E-11, 1.6000000000000003E-13
DataValue, -2.3245, 1, -5.688E-11, -1.02E-12, 5.8180000000000006E-11, 5.688E-11, 5.8180000000000006E-11, 1.02E-12
DataValue, -2.3155, 1, -5.4820000000000004E-11, -8.1000000000000008E-13, 5.696E-11, 5.4820000000000004E-11, 5.696E-11, 8.1000000000000008E-13
DataValue, -2.30625, 1, -5.332E-11, 1.9000000000000002E-13, 5.3980000000000004E-11, 5.332E-11, 5.3980000000000004E-11, 1.9000000000000002E-13
DataValue, -2.297, 1, -5.109E-11, -4.4000000000000004E-13, 5.28E-11, 5.109E-11, 5.28E-11, 4.4000000000000004E-13
DataValue, -2.28775, 1, -4.974E-11, 2.6E-13, 5.244E-11, 4.974E-11, 5.244E-11, 2.6E-13
DataValue, -2.2785, 1, -4.85E-11, 3.5E-13, 4.9540000000000004E-11, 4.85E-11, 4.9540000000000004E-11, 3.5E-13
DataValue, -2.26925, 1, -4.7440000000000006E-11, 1.9000000000000002E-13, 4.8640000000000006E-11, 4.7440000000000006E-11, 4.8640000000000006E-11, 1.9000000000000002E-13
DataValue, -2.2600000000000002, 1, -4.577E-11, 1.02E-12, 4.5980000000000006E-11, 4.577E-11, 4.5980000000000006E-11, 1.02E-12
DataValue, -2.25075, 1, -4.4920000000000005E-11, 2.4000000000000004E-13, 4.472E-11, 4.4920000000000005E-11, 4.472E-11, 2.4000000000000004E-13
DataValue, -2.2415, 1, -4.3900000000000005E-11, 9.6000000000000015E-13, 4.297E-11, 4.3900000000000005E-11, 4.297E-11, 9.6000000000000015E-13
DataValue, -2.23225, 1, -4.3030000000000005E-11, 6.7000000000000007E-13, 4.301E-11, 4.3030000000000005E-11, 4.301E-11, 6.7000000000000007E-13
DataValue, -2.223, 1, -4.0980000000000004E-11, 9.8E-13, 4.1E-11, 4.0980000000000004E-11, 4.1E-11, 9.8E-13
DataValue, -2.21375, 1, -4.0410000000000006E-11, 3.2000000000000005E-13, 3.999E-11, 4.0410000000000006E-11, 3.999E-11, 3.2000000000000005E-13
DataValue, -2.2045, 1, -4.0810000000000006E-11, 5.5000000000000008E-13, 3.9170000000000005E-11, 4.0810000000000006E-11, 3.9170000000000005E-11, 5.5000000000000008E-13
DataValue, -2.1955, 1, -3.9530000000000005E-11, 3.4E-13, 3.816E-11, 3.9530000000000005E-11, 3.816E-11, 3.4E-13
DataValue, -2.1862500000000002, 1, -3.8760000000000004E-11, 2.7E-13, 3.7200000000000005E-11, 3.8760000000000004E-11, 3.7200000000000005E-11, 2.7E-13
DataValue, -2.177, 1, -3.721E-11, 5.2E-13, 3.653E-11, 3.721E-11, 3.653E-11, 5.2E-13
DataValue, -2.16775, 1, -3.6140000000000004E-11, -4E-13, 3.475E-11, 3.6140000000000004E-11, 3.475E-11, 4E-13
DataValue, -2.1585, 1, -3.5820000000000005E-11, -1.5200000000000002E-12, 3.346E-11, 3.5820000000000005E-11, 3.346E-11, 1.5200000000000002E-12
DataValue, -2.14925, 1, -3.423E-11, -7.9000000000000007E-13, 3.012E-11, 3.423E-11, 3.012E-11, 7.9000000000000007E-13
DataValue, -2.14, 1, -3.241E-11, -9.6000000000000015E-13, 3.1080000000000004E-11, 3.241E-11, 3.1080000000000004E-11, 9.6000000000000015E-13
DataValue, -2.13075, 1, -3.175E-11, -3.0000000000000003E-13, 2.914E-11, 3.175E-11, 2.914E-11, 3.0000000000000003E-13
DataValue, -2.1215, 1, -3.0530000000000003E-11, -3.4E-13, 2.693E-11, 3.0530000000000003E-11, 2.693E-11, 3.4E-13
DataValue, -2.11225, 1, -2.8730000000000004E-11, -1.12E-12, 2.6770000000000002E-11, 2.8730000000000004E-11, 2.6770000000000002E-11, 1.12E-12
DataValue, -2.103, 1, -2.7980000000000003E-11, 1.0500000000000002E-12, 2.5500000000000002E-11, 2.7980000000000003E-11, 2.5500000000000002E-11, 1.0500000000000002E-12
DataValue, -2.09375, 1, -2.631E-11, 1.27E-12, 2.5250000000000003E-11, 2.631E-11, 2.5250000000000003E-11, 1.27E-12
DataValue, -2.0845000000000002, 1, -2.4660000000000002E-11, -3.3E-13, 2.4480000000000002E-11, 2.4660000000000002E-11, 2.4480000000000002E-11, 3.3E-13
DataValue, -2.0755, 1, -2.4210000000000003E-11, 6.0000000000000009E-14, 2.38E-11, 2.4210000000000003E-11, 2.38E-11, 6.0000000000000009E-14
DataValue, -2.06625, 1, -2.2970000000000002E-11, 5.4E-13, 2.2810000000000003E-11, 2.2970000000000002E-11, 2.2810000000000003E-11, 5.4E-13
DataValue, -2.057, 1, -2.1460000000000003E-11, 9.4E-13, 2.216E-11, 2.1460000000000003E-11, 2.216E-11, 9.4E-13
DataValue, -2.04775, 1, -2.07E-11, 8.9E-13, 2.1370000000000003E-11, 2.07E-11, 2.1370000000000003E-11, 8.9E-13
DataValue, -2.0385, 1, -1.937E-11, -1.9000000000000002E-13, 2.149E-11, 1.937E-11, 2.149E-11, 1.9000000000000002E-13
DataValue, -2.02925, 1, -1.8290000000000002E-11, -5.7E-13, 2.123E-11, 1.8290000000000002E-11, 2.123E-11, 5.7E-13
DataValue, -2.02, 1, -1.763E-11, -9.8E-13, 2.1350000000000003E-11, 1.763E-11, 2.1350000000000003E-11, 9.8E-13
DataValue, -2.0107500000000003, 1, -1.677E-11, -5.2E-13, 2.0220000000000002E-11, 1.677E-11, 2.0220000000000002E-11, 5.2E-13
DataValue, -2.0015, 1, -1.635E-11, -6.0000000000000007E-13, 1.708E-11, 1.635E-11, 1.708E-11, 6.0000000000000007E-13
DataValue, -1.99225, 1, -1.515E-11, -1.0600000000000001E-12, 1.549E-11, 1.515E-11, 1.549E-11, 1.0600000000000001E-12
DataValue, -1.983, 1, -1.522E-11, 1.3E-13, 1.7800000000000003E-11, 1.522E-11, 1.7800000000000003E-11, 1.3E-13
DataValue, -1.9737500000000001, 1, -1.581E-11, -6.0000000000000009E-14, 1.6200000000000003E-11, 1.581E-11, 1.6200000000000003E-11, 6.0000000000000009E-14
DataValue, -1.9645000000000001, 1, -1.5030000000000002E-11, 3.9000000000000005E-13, 1.559E-11, 1.5030000000000002E-11, 1.559E-11, 3.9000000000000005E-13
DataValue, -1.9555, 1, -1.4460000000000001E-11, 2.5E-13, 1.484E-11, 1.4460000000000001E-11, 1.484E-11, 2.5E-13
DataValue, -1.94625, 1, -1.4170000000000001E-11, -1E-13, 1.4500000000000002E-11, 1.4170000000000001E-11, 1.4500000000000002E-11, 1E-13
DataValue, -1.937, 1, -1.4560000000000003E-11, -4.0000000000000006E-14, 1.432E-11, 1.4560000000000003E-11, 1.432E-11, 4.0000000000000006E-14
DataValue, -1.92775, 1, -1.352E-11, 1.04E-12, 1.4170000000000001E-11, 1.352E-11, 1.4170000000000001E-11, 1.04E-12
DataValue, -1.9185, 1, -1.4180000000000001E-11, 1.23E-12, 1.4450000000000001E-11, 1.4180000000000001E-11, 1.4450000000000001E-11, 1.23E-12
DataValue, -1.9092500000000001, 1, -1.4810000000000002E-11, 9.7000000000000011E-13, 1.391E-11, 1.4810000000000002E-11, 1.391E-11, 9.7000000000000011E-13
DataValue, -1.9000000000000001, 1, -1.4150000000000001E-11, 7.3E-13, 1.3770000000000001E-11, 1.4150000000000001E-11, 1.3770000000000001E-11, 7.3E-13
DataValue, -1.89075, 1, -1.452E-11, 9.3E-13, 1.432E-11, 1.452E-11, 1.432E-11, 9.3E-13
DataValue, -1.8815, 1, -1.393E-11, -1.7E-13, 1.34E-11, 1.393E-11, 1.34E-11, 1.7E-13
DataValue, -1.87225, 1, -1.3570000000000001E-11, -4E-13, 1.2960000000000001E-11, 1.3570000000000001E-11, 1.2960000000000001E-11, 4E-13
DataValue, -1.863, 1, -1.4060000000000001E-11, 5.1E-13, 1.087E-11, 1.4060000000000001E-11, 1.087E-11, 5.1E-13
DataValue, -1.85375, 1, -1.3E-11, 8.4000000000000006E-13, 1.0240000000000002E-11, 1.3E-11, 1.0240000000000002E-11, 8.4000000000000006E-13
DataValue, -1.8445, 1, -1.301E-11, 3.0000000000000005E-14, 1.252E-11, 1.301E-11, 1.252E-11, 3.0000000000000005E-14
DataValue, -1.8355000000000001, 1, -1.281E-11, -1.5000000000000002E-13, 1.17E-11, 1.281E-11, 1.17E-11, 1.5000000000000002E-13
DataValue, -1.82625, 1, -1.2220000000000001E-11, 1.0000000000000002E-14, 1.259E-11, 1.2220000000000001E-11, 1.259E-11, 1.0000000000000002E-14
DataValue, -1.817, 1, -1.16E-11, -1.1100000000000001E-12, 1.0910000000000001E-11, 1.16E-11, 1.0910000000000001E-11, 1.1100000000000001E-12
DataValue, -1.80775, 1, -1.148E-11, -1.7600000000000002E-12, 8.76E-12, 1.148E-11, 8.76E-12, 1.7600000000000002E-12
DataValue, -1.7985, 1, -1.086E-11, -1.23E-12, 8.66E-12, 1.086E-11, 8.66E-12, 1.23E-12
DataValue, -1.78925, 1, -1.1010000000000001E-11, -5.3000000000000006E-13, 7.7900000000000013E-12, 1.1010000000000001E-11, 7.7900000000000013E-12, 5.3000000000000006E-13
DataValue, -1.78, 1, -1.015E-11, -1.07E-12, 6.5200000000000005E-12, 1.015E-11, 6.5200000000000005E-12, 1.07E-12
DataValue, -1.77075, 1, -9.76E-12, 6.1E-13, 6.7500000000000009E-12, 9.76E-12, 6.7500000000000009E-12, 6.1E-13
DataValue, -1.7615, 1, -8.1700000000000009E-12, -7.5E-13, 6.4800000000000007E-12, 8.1700000000000009E-12, 6.4800000000000007E-12, 7.5E-13
DataValue, -1.75225, 1, -8.070000000000001E-12, 2.6E-13, 6.3900000000000008E-12, 8.070000000000001E-12, 6.3900000000000008E-12, 2.6E-13
DataValue, -1.743, 1, -7.1400000000000007E-12, -2.4000000000000004E-13, 7.52E-12, 7.1400000000000007E-12, 7.52E-12, 2.4000000000000004E-13
DataValue, -1.7337500000000001, 1, -6.9900000000000007E-12, 9.000000000000001E-13, 7.7600000000000009E-12, 6.9900000000000007E-12, 7.7600000000000009E-12, 9.000000000000001E-13
DataValue, -1.7245000000000001, 1, -5.07E-12, 9.0000000000000008E-14, 6.91E-12, 5.07E-12, 6.91E-12, 9.0000000000000008E-14
DataValue, -1.7155, 1, -4.94E-12, 6.0000000000000009E-14, 7.12E-12, 4.94E-12, 7.12E-12, 6.0000000000000009E-14
DataValue, -1.70625, 1, -4.36E-12, 4.1E-13, 5.49E-12, 4.36E-12, 5.49E-12, 4.1E-13
DataValue, -1.697, 1, -4.4500000000000006E-12, 2.1000000000000001E-13, 7.3800000000000013E-12, 4.4500000000000006E-12, 7.3800000000000013E-12, 2.1000000000000001E-13
DataValue, -1.68775, 1, -3.5900000000000003E-12, 1.8000000000000002E-13, 6.26E-12, 3.5900000000000003E-12, 6.26E-12, 1.8000000000000002E-13
DataValue, -1.6785, 1, -3.91E-12, 5E-13, 5.9200000000000006E-12, 3.91E-12, 5.9200000000000006E-12, 5E-13
DataValue, -1.6692500000000001, 1, -3.46E-12, -5E-14, 5.7E-12, 3.46E-12, 5.7E-12, 5E-14
DataValue, -1.6600000000000001, 1, -2.69E-12, -7.2000000000000006E-13, 6.3300000000000007E-12, 2.69E-12, 6.3300000000000007E-12, 7.2000000000000006E-13
DataValue, -1.65075, 1, -2.7300000000000003E-12, -1.03E-12, 4.94E-12, 2.7300000000000003E-12, 4.94E-12, 1.03E-12
DataValue, -1.6415, 1, -2.5000000000000003E-12, -9.4E-13, 4.87E-12, 2.5000000000000003E-12, 4.87E-12, 9.4E-13
DataValue, -1.63225, 1, -2.75E-12, -2.1000000000000001E-13, 5.7200000000000007E-12, 2.75E-12, 5.7200000000000007E-12, 2.1000000000000001E-13
DataValue, -1.623, 1, -2.7800000000000003E-12, -7.2000000000000006E-13, 4.2900000000000005E-12, 2.7800000000000003E-12, 4.2900000000000005E-12, 7.2000000000000006E-13
DataValue, -1.61375, 1, -3.46E-12, -7.5E-13, 2.69E-12, 3.46E-12, 2.69E-12, 7.5E-13
DataValue, -1.6045, 1, -3.48E-12, -1.5000000000000002E-13, 3.8800000000000004E-12, 3.48E-12, 3.8800000000000004E-12, 1.5000000000000002E-13
DataValue, -1.5955000000000001, 1, -3.5400000000000003E-12, 3.8000000000000005E-13, 3.2200000000000004E-12, 3.5400000000000003E-12, 3.2200000000000004E-12, 3.8000000000000005E-13
DataValue, -1.58625, 1, -3.76E-12, 3.7000000000000004E-13, 3.58E-12, 3.76E-12, 3.58E-12, 3.7000000000000004E-13
DataValue, -1.577, 1, -3.9400000000000006E-12, 9.8E-13, 4.53E-12, 3.9400000000000006E-12, 4.53E-12, 9.8E-13
DataValue, -1.56775, 1, -3.95E-12, 1.6000000000000003E-13, 8.9E-13, 3.95E-12, 8.9E-13, 1.6000000000000003E-13
DataValue, -1.5585, 1, -3.87E-12, 9.8E-13, 3.4500000000000004E-12, 3.87E-12, 3.4500000000000004E-12, 9.8E-13
DataValue, -1.54925, 1, -3.96E-12, 1.1900000000000002E-12, 3.6800000000000005E-12, 3.96E-12, 3.6800000000000005E-12, 1.1900000000000002E-12
