
SetupTitle, Vd=1V(-2.5,3.5)
PrimitiveTest, I/V Sweep
TestParameter, Context.MainFrame, B1500A
TestParameter, Channel.UnitType, SMU, SMU, SMU
TestParameter, Channel.Unit, SMU1:HR, SMU2:HR, SMU3:HR
TestParameter, Channel.IName, Ig, Is, Id
TestParameter, Channel.VName, Vg, Vs, Vd
TestParameter, Channel.Mode, V, V, V
TestParameter, Channel.Func, VAR1, CONST, CONST
TestParameter, Channel.Index, 
TestParameter, Channel.Time, 
TestParameter, Measurement.Port.Unit, SMU1:HR, SMU2:HR, SMU3:HR
TestParameter, Measurement.Port.SeriesResistor, NONE, NONE, NONE
TestParameter, Measurement.Port.Filter, ON, ON, ON
TestParameter, Measurement.Port.OutputVoltageComparison, 0, 0, 0
TestParameter, Measurement.Primary.Locus, Double
TestParameter, Measurement.Primary.Scale, LINEAR
TestParameter, Measurement.Primary.Start, -2.5
TestParameter, Measurement.Primary.Stop, 3.5
TestParameter, Measurement.Primary.Step, 0.00925
TestParameter, Measurement.Primary.Compliance, 0.1
TestParameter, Measurement.Primary.PowerCompliance, 0
TestParameter, Measurement.Aborting.Condition, CONTINUE AT ANY
TestParameter, Measurement.PostOutput.Value, START
TestParameter, Measurement.PostOutput.Retention, OFF
TestParameter, Measurement.Bias.Source, -2.5, 0, 1
TestParameter, Measurement.Bias.Compliance, 0.1, 0.1, 0.1
TestParameter, Measurement.Monitor.Unit, SMU1:HR, SMU2:HR, SMU3:HR
TestParameter, Measurement.Monitor.Adc, HR ADC, HR ADC, HR ADC
TestParameter, Measurement.Monitor.Measurement, Compliance Side, Compliance Side, Compliance Side
TestParameter, Measurement.Monitor.RangingMode, LIMITED, LIMITED, LIMITED
TestParameter, Measurement.Monitor.RangeBoundary, 1nA, 1nA, 1nA
TestParameter, Measurement.Monitor.RangeRating, BY FULL RANGE, BY FULL RANGE, BY FULL RANGE
TestParameter, Measurement.Monitor.RangeRatingCoeff, 50, 50, 50
TestParameter, Measurement.Timing.Hold, 0
TestParameter, Measurement.Timing.Delay, 0
TestParameter, Measurement.Adc.HighSpeed.Mode, AUTO
TestParameter, Measurement.Adc.HighSpeed.Coeff, 1
TestParameter, Measurement.Adc.HighResolution.AutoZero, OFF
TestParameter, Measurement.Adc.HighResolution.Mode, AUTO
TestParameter, Measurement.Adc.HighResolution.Coeff, 3
TestParameter, Measurement.WaitTime.Source.Coeff, 1
TestParameter, Measurement.WaitTime.Source.Offset, 0
TestParameter, Measurement.WaitTime.Monitor.Coeff, 1
TestParameter, Measurement.WaitTime.Monitor.Offset, 0
TestParameter, Function.User.Name, absIg, absId, absIs
TestParameter, Function.User.Unit, A, A, A
TestParameter, Function.User.Definition, abs(Ig), abs(Id), abs(Is)
TestParameter, Output.Graph.Enabled, true
TestParameter, Output.Graph.AutoScaling, false
TestParameter, Output.Graph.XAxis.Data, Vg
TestParameter, Output.Graph.XAxis.Scale, Linear
TestParameter, Output.Graph.XAxis.Left, -2.5
TestParameter, Output.Graph.XAxis.Right, 3.5
TestParameter, Output.Graph.XAxis.RunTimeAutoScale, true
TestParameter, Output.Graph.YAxis.Data, absIg, absId, absIs
TestParameter, Output.Graph.YAxis.Scale, Log, Log, Log
TestParameter, Output.Graph.YAxis.Bottom, 0, 0, 0
TestParameter, Output.Graph.YAxis.Top, 1, 1, 1
TestParameter, Output.Graph.YAxis.Group, Group 1, Group 1, Group 1
TestParameter, Output.Graph.YAxis.RunTimeAutoScale, true, true, true
TestParameter, Output.List.Data, Vg, Vd, Ig, Id, Is, absIg, absId, absIs
TestParameter, AutoAnalysis.Interpolation, false
TestParameter, AutoAnalysis.Var2StepCount, 1
TestParameter, AutoAnalysis.Var2StepScript, 
TestParameter, AutoAnalysis.Line1.Enabled, false
TestParameter, AutoAnalysis.Line1.Type, 1
TestParameter, AutoAnalysis.Line1.Fix, True
TestParameter, AutoAnalysis.Line1.YAxis, 0
TestParameter, AutoAnalysis.Line1.Point1.Type, 0
TestParameter, AutoAnalysis.Line1.Point1.XY.X, 
TestParameter, AutoAnalysis.Line1.Point1.XY.Y, 
TestParameter, AutoAnalysis.Line1.Point1.Data.Var, 
TestParameter, AutoAnalysis.Line1.Point1.Data.Condition, 
TestParameter, AutoAnalysis.Line1.Point1.Data.Start, false
TestParameter, AutoAnalysis.Line1.Point1.Data.StartVar, 
TestParameter, AutoAnalysis.Line1.Point1.Data.StartCondition, 
TestParameter, AutoAnalysis.Line1.Point2.Type, 0
TestParameter, AutoAnalysis.Line1.Point2.XY.X, 
TestParameter, AutoAnalysis.Line1.Point2.XY.Y, 
TestParameter, AutoAnalysis.Line1.Point2.Data.Var, 
TestParameter, AutoAnalysis.Line1.Point2.Data.Condition, 
TestParameter, AutoAnalysis.Line1.Point2.Data.Start, false
TestParameter, AutoAnalysis.Line1.Point2.Data.StartVar, 
TestParameter, AutoAnalysis.Line1.Point2.Data.StartCondition, 
TestParameter, AutoAnalysis.Line1.GradientExpr, 0
TestParameter, AutoAnalysis.Line2.Enabled, false
TestParameter, AutoAnalysis.Line2.Type, 1
TestParameter, AutoAnalysis.Line2.Fix, True
TestParameter, AutoAnalysis.Line2.YAxis, 0
TestParameter, AutoAnalysis.Line2.Point1.Type, 0
TestParameter, AutoAnalysis.Line2.Point1.XY.X, 
TestParameter, AutoAnalysis.Line2.Point1.XY.Y, 
TestParameter, AutoAnalysis.Line2.Point1.Data.Var, 
TestParameter, AutoAnalysis.Line2.Point1.Data.Condition, 
TestParameter, AutoAnalysis.Line2.Point1.Data.Start, false
TestParameter, AutoAnalysis.Line2.Point1.Data.StartVar, 
TestParameter, AutoAnalysis.Line2.Point1.Data.StartCondition, 
TestParameter, AutoAnalysis.Line2.Point2.Type, 0
TestParameter, AutoAnalysis.Line2.Point2.XY.X, 
TestParameter, AutoAnalysis.Line2.Point2.XY.Y, 
TestParameter, AutoAnalysis.Line2.Point2.Data.Var, 
TestParameter, AutoAnalysis.Line2.Point2.Data.Condition, 
TestParameter, AutoAnalysis.Line2.Point2.Data.Start, false
TestParameter, AutoAnalysis.Line2.Point2.Data.StartVar, 
TestParameter, AutoAnalysis.Line2.Point2.Data.StartCondition, 
TestParameter, AutoAnalysis.Line2.GradientExpr, 0
TestParameter, AutoAnalysis.Marker.Enabled, false
TestParameter, AutoAnalysis.Marker.Data.Var, 
TestParameter, AutoAnalysis.Marker.Data.Condition, 
TestParameter, AutoAnalysis.Marker.Data.Start, false
TestParameter, AutoAnalysis.Marker.Data.StartVar, 
TestParameter, AutoAnalysis.Marker.Data.StartCondition, 
MetaData, TestRecord.EntryPoint, true
MetaData, TestRecord.RecordTime, 04/07/2025 16:24:39
MetaData, TestRecord.TestTarget, BGAF 3_1 303 W36-L4
MetaData, TestRecord.IterationIndex, 14
MetaData, TestRecord.Preservation, true
MetaData, TestRecord.Flag, 
MetaData, TestRecord.Remarks, 
MetaData, TestRecord.LinkKey, b5575275-64d8-49a1-a041-304fcea75fe1
MetaData, TestRecord.Parameters, 
Dimension1, 1302, 1302, 1302, 1302, 1302, 1302, 1302, 1302
Dimension2, 1, 1, 1, 1, 1, 1, 1, 1
DataName, Vg, Vd, Ig, Is, Id, absIg, absId, absIs
DataValue, -2.5, 1, -8.068300000000001E-10, -1.0500000000000002E-12, 6.1472E-10, 8.068300000000001E-10, 6.1472E-10, 1.0500000000000002E-12
DataValue, -2.4907500000000002, 1, -8.914E-10, -3.7000000000000004E-13, 1.04942E-09, 8.914E-10, 1.04942E-09, 3.7000000000000004E-13
DataValue, -2.4815, 1, -5.934E-10, -2.2000000000000002E-13, 7.151E-10, 5.934E-10, 7.151E-10, 2.2000000000000002E-13
DataValue, -2.47225, 1, -6.5308000000000009E-10, -1.7E-13, 6.5999E-10, 6.5308000000000009E-10, 6.5999E-10, 1.7E-13
DataValue, -2.463, 1, -6.5348E-10, -9.0000000000000008E-14, 6.4316000000000008E-10, 6.5348E-10, 6.4316000000000008E-10, 9.0000000000000008E-14
DataValue, -2.45375, 1, -6.8318E-10, 2.4000000000000004E-13, 6.7214E-10, 6.8318E-10, 6.7214E-10, 2.4000000000000004E-13
DataValue, -2.4445, 1, -7.231100000000001E-10, -7.6000000000000009E-13, 7.2529000000000009E-10, 7.231100000000001E-10, 7.2529000000000009E-10, 7.6000000000000009E-13
DataValue, -2.4355, 1, -7.3895E-10, -1.8000000000000002E-13, 7.9234000000000008E-10, 7.3895E-10, 7.9234000000000008E-10, 1.8000000000000002E-13
DataValue, -2.42625, 1, -7.8015E-10, 2.5E-13, 7.8855E-10, 7.8015E-10, 7.8855E-10, 2.5E-13
DataValue, -2.4170000000000003, 1, -8.5213E-10, 2.3000000000000003E-13, 8.3291000000000007E-10, 8.5213E-10, 8.3291000000000007E-10, 2.3000000000000003E-13
DataValue, -2.40775, 1, -6.8405E-10, -9.0000000000000008E-14, 6.7148E-10, 6.8405E-10, 6.7148E-10, 9.0000000000000008E-14
DataValue, -2.3985, 1, -6.1110000000000009E-10, 1.09E-12, 6.0662E-10, 6.1110000000000009E-10, 6.0662E-10, 1.09E-12
DataValue, -2.38925, 1, -5.8621000000000009E-10, 4.0000000000000006E-14, 5.9271E-10, 5.8621000000000009E-10, 5.9271E-10, 4.0000000000000006E-14
DataValue, -2.38, 1, -6.0694000000000008E-10, 1.0500000000000002E-12, 5.9273000000000008E-10, 6.0694000000000008E-10, 5.9273000000000008E-10, 1.0500000000000002E-12
DataValue, -2.37075, 1, -6.409800000000001E-10, -2.1000000000000001E-13, 6.1464000000000006E-10, 6.409800000000001E-10, 6.1464000000000006E-10, 2.1000000000000001E-13
DataValue, -2.3615, 1, -6.0143000000000006E-10, 0, 6.081E-10, 6.0143000000000006E-10, 6.081E-10, 0
DataValue, -2.35225, 1, -6.1005000000000008E-10, 6.2000000000000008E-13, 6.2815E-10, 6.1005000000000008E-10, 6.2815E-10, 6.2000000000000008E-13
DataValue, -2.343, 1, -5.7896E-10, 6.400000000000001E-13, 5.6802000000000007E-10, 5.7896E-10, 5.6802000000000007E-10, 6.400000000000001E-13
DataValue, -2.33375, 1, -5.9251000000000006E-10, 1.0000000000000002E-14, 5.9156000000000007E-10, 5.9251000000000006E-10, 5.9156000000000007E-10, 1.0000000000000002E-14
DataValue, -2.3245, 1, -6.1519E-10, 1E-13, 6.0841000000000007E-10, 6.1519E-10, 6.0841000000000007E-10, 1E-13
DataValue, -2.3155, 1, -5.3093E-10, -2.9000000000000003E-13, 5.4207000000000007E-10, 5.3093E-10, 5.4207000000000007E-10, 2.9000000000000003E-13
DataValue, -2.30625, 1, -5.7676000000000008E-10, -1.3E-13, 5.9176E-10, 5.7676000000000008E-10, 5.9176E-10, 1.3E-13
DataValue, -2.297, 1, -5.4553000000000008E-10, -3.0000000000000005E-14, 5.3468000000000006E-10, 5.4553000000000008E-10, 5.3468000000000006E-10, 3.0000000000000005E-14
DataValue, -2.28775, 1, -5.3184E-10, -3.9000000000000005E-13, 5.211E-10, 5.3184E-10, 5.211E-10, 3.9000000000000005E-13
DataValue, -2.2785, 1, -5.0432000000000007E-10, -3.3E-13, 5.4231000000000006E-10, 5.0432000000000007E-10, 5.4231000000000006E-10, 3.3E-13
DataValue, -2.26925, 1, -5.0063000000000006E-10, 9.5E-13, 5.0225E-10, 5.0063000000000006E-10, 5.0225E-10, 9.5E-13
DataValue, -2.2600000000000002, 1, -4.4437000000000004E-10, 8.0000000000000013E-14, 4.0481E-10, 4.4437000000000004E-10, 4.0481E-10, 8.0000000000000013E-14
DataValue, -2.25075, 1, -4.4583000000000005E-10, -1.0000000000000002E-14, 4.4551000000000005E-10, 4.4583000000000005E-10, 4.4551000000000005E-10, 1.0000000000000002E-14
DataValue, -2.2415, 1, -4.3087000000000003E-10, 5.6E-13, 4.3339000000000004E-10, 4.3087000000000003E-10, 4.3339000000000004E-10, 5.6E-13
DataValue, -2.23225, 1, -4.3022000000000004E-10, 6.0000000000000009E-14, 4.6068000000000006E-10, 4.3022000000000004E-10, 4.6068000000000006E-10, 6.0000000000000009E-14
DataValue, -2.223, 1, -4.5539E-10, 6.5000000000000006E-13, 4.3700000000000004E-10, 4.5539E-10, 4.3700000000000004E-10, 6.5000000000000006E-13
DataValue, -2.21375, 1, -4.2177000000000003E-10, 2.8E-13, 3.9891E-10, 4.2177000000000003E-10, 3.9891E-10, 2.8E-13
DataValue, -2.2045, 1, -3.8977000000000004E-10, 6.2000000000000008E-13, 3.9752000000000004E-10, 3.8977000000000004E-10, 3.9752000000000004E-10, 6.2000000000000008E-13
DataValue, -2.1955, 1, -3.8633000000000005E-10, -6.1E-13, 4.4138000000000003E-10, 3.8633000000000005E-10, 4.4138000000000003E-10, 6.1E-13
DataValue, -2.1862500000000002, 1, -4.9876E-10, -1.26E-12, 4.8929000000000008E-10, 4.9876E-10, 4.8929000000000008E-10, 1.26E-12
DataValue, -2.177, 1, -4.7123E-10, -9.4E-13, 4.7228E-10, 4.7123E-10, 4.7228E-10, 9.4E-13
DataValue, -2.16775, 1, -4.1884E-10, -6.6E-13, 4.2896000000000004E-10, 4.1884E-10, 4.2896000000000004E-10, 6.6E-13
DataValue, -2.1585, 1, -4.0735000000000005E-10, -6.1E-13, 4.0739000000000003E-10, 4.0735000000000005E-10, 4.0739000000000003E-10, 6.1E-13
DataValue, -2.14925, 1, -3.7989E-10, -6.3E-13, 3.9121000000000004E-10, 3.7989E-10, 3.9121000000000004E-10, 6.3E-13
DataValue, -2.14, 1, -4.1899E-10, -4.8000000000000008E-13, 4.2537000000000005E-10, 4.1899E-10, 4.2537000000000005E-10, 4.8000000000000008E-13
DataValue, -2.13075, 1, -4.1846E-10, -4.1E-13, 4.1195E-10, 4.1846E-10, 4.1195E-10, 4.1E-13
DataValue, -2.1215, 1, -3.9618E-10, -5.2E-13, 3.9483E-10, 3.9618E-10, 3.9483E-10, 5.2E-13
DataValue, -2.11225, 1, -4.0123E-10, -7.5E-13, 3.9758000000000004E-10, 4.0123E-10, 3.9758000000000004E-10, 7.5E-13
DataValue, -2.103, 1, -4.7397000000000007E-10, 0, 4.6283000000000004E-10, 4.7397000000000007E-10, 4.6283000000000004E-10, 0
DataValue, -2.09375, 1, -4.3097E-10, -1.3E-13, 4.1084000000000005E-10, 4.3097E-10, 4.1084000000000005E-10, 1.3E-13
DataValue, -2.0845000000000002, 1, -4.1113E-10, 8.1000000000000008E-13, 4.1836000000000004E-10, 4.1113E-10, 4.1836000000000004E-10, 8.1000000000000008E-13
DataValue, -2.0755, 1, -4.1644E-10, 1.21E-12, 4.1143000000000005E-10, 4.1644E-10, 4.1143000000000005E-10, 1.21E-12
DataValue, -2.06625, 1, -3.8582E-10, 4.0000000000000006E-14, 4.0040000000000003E-10, 3.8582E-10, 4.0040000000000003E-10, 4.0000000000000006E-14
DataValue, -2.057, 1, -4.1097000000000003E-10, 1.7E-13, 4.0830000000000003E-10, 4.1097000000000003E-10, 4.0830000000000003E-10, 1.7E-13
DataValue, -2.04775, 1, -4.0889E-10, 1.9000000000000002E-13, 4.1242E-10, 4.0889E-10, 4.1242E-10, 1.9000000000000002E-13
DataValue, -2.0385, 1, -3.9749000000000004E-10, 4.0000000000000006E-14, 4.0121000000000005E-10, 3.9749000000000004E-10, 4.0121000000000005E-10, 4.0000000000000006E-14
DataValue, -2.02925, 1, -3.7594000000000005E-10, -1.4E-13, 3.7527000000000004E-10, 3.7594000000000005E-10, 3.7527000000000004E-10, 1.4E-13
DataValue, -2.02, 1, -3.5936000000000004E-10, -4.8000000000000008E-13, 3.8810000000000004E-10, 3.5936000000000004E-10, 3.8810000000000004E-10, 4.8000000000000008E-13
DataValue, -2.0107500000000003, 1, -3.9172E-10, -7.9000000000000007E-13, 3.8789000000000004E-10, 3.9172E-10, 3.8789000000000004E-10, 7.9000000000000007E-13
DataValue, -2.0015, 1, -3.8479E-10, -7.6000000000000009E-13, 3.8042E-10, 3.8479E-10, 3.8042E-10, 7.6000000000000009E-13
DataValue, -1.99225, 1, -3.7357000000000003E-10, -9.6000000000000015E-13, 3.6736E-10, 3.7357000000000003E-10, 3.6736E-10, 9.6000000000000015E-13
DataValue, -1.983, 1, -3.6152E-10, -7E-14, 3.5930000000000004E-10, 3.6152E-10, 3.5930000000000004E-10, 7E-14
DataValue, -1.9737500000000001, 1, -3.5178000000000005E-10, -1.8000000000000002E-13, 3.4576E-10, 3.5178000000000005E-10, 3.4576E-10, 1.8000000000000002E-13
DataValue, -1.9645000000000001, 1, -3.3296E-10, 2.3000000000000003E-13, 3.3844E-10, 3.3296E-10, 3.3844E-10, 2.3000000000000003E-13
DataValue, -1.9555, 1, -3.666E-10, 9.0000000000000008E-14, 3.3691000000000003E-10, 3.666E-10, 3.3691000000000003E-10, 9.0000000000000008E-14
DataValue, -1.94625, 1, -3.3273000000000005E-10, 5.7E-13, 3.371E-10, 3.3273000000000005E-10, 3.371E-10, 5.7E-13
DataValue, -1.937, 1, -3.4854E-10, 1.21E-12, 3.3952000000000003E-10, 3.4854E-10, 3.3952000000000003E-10, 1.21E-12
DataValue, -1.92775, 1, -2.8352E-10, 4.7E-13, 2.8430000000000004E-10, 2.8352E-10, 2.8430000000000004E-10, 4.7E-13
DataValue, -1.9185, 1, -2.9087E-10, -1.7E-13, 2.9165E-10, 2.9087E-10, 2.9165E-10, 1.7E-13
DataValue, -1.9092500000000001, 1, -2.7071000000000004E-10, 3.9000000000000005E-13, 2.6584000000000004E-10, 2.7071000000000004E-10, 2.6584000000000004E-10, 3.9000000000000005E-13
DataValue, -1.9000000000000001, 1, -2.6279000000000003E-10, -2.3000000000000003E-13, 2.6132000000000003E-10, 2.6279000000000003E-10, 2.6132000000000003E-10, 2.3000000000000003E-13
DataValue, -1.89075, 1, -2.6419000000000005E-10, -5E-14, 2.6305000000000004E-10, 2.6419000000000005E-10, 2.6305000000000004E-10, 5E-14
DataValue, -1.8815, 1, -2.8245000000000004E-10, -4.9E-13, 2.9066E-10, 2.8245000000000004E-10, 2.9066E-10, 4.9E-13
DataValue, -1.87225, 1, -2.8715000000000004E-10, -8.6000000000000007E-13, 2.8746E-10, 2.8715000000000004E-10, 2.8746E-10, 8.6000000000000007E-13
DataValue, -1.863, 1, -3.0384E-10, -6.9000000000000009E-13, 2.9425000000000004E-10, 3.0384E-10, 2.9425000000000004E-10, 6.9000000000000009E-13
DataValue, -1.85375, 1, -2.6842000000000004E-10, -9.6000000000000015E-13, 2.6303E-10, 2.6842000000000004E-10, 2.6303E-10, 9.6000000000000015E-13
DataValue, -1.8445, 1, -3.0059000000000004E-10, -8.300000000000001E-13, 3.0427E-10, 3.0059000000000004E-10, 3.0427E-10, 8.300000000000001E-13
DataValue, -1.8355000000000001, 1, -2.7002E-10, -3.3E-13, 2.5038E-10, 2.7002E-10, 2.5038E-10, 3.3E-13
DataValue, -1.82625, 1, -1.9288E-10, -8.8000000000000009E-13, 1.9705E-10, 1.9288E-10, 1.9705E-10, 8.8000000000000009E-13
DataValue, -1.817, 1, -1.9001000000000002E-10, 5.5000000000000008E-13, 2.1384E-10, 1.9001000000000002E-10, 2.1384E-10, 5.5000000000000008E-13
DataValue, -1.80775, 1, -2.1667E-10, 1.2800000000000002E-12, 2.2845000000000002E-10, 2.1667E-10, 2.2845000000000002E-10, 1.2800000000000002E-12
DataValue, -1.7985, 1, -1.4613000000000002E-10, -1.4E-13, 1.5693000000000002E-10, 1.4613000000000002E-10, 1.5693000000000002E-10, 1.4E-13
DataValue, -1.78925, 1, -1.2790000000000002E-10, 3.0000000000000005E-14, 1.2858E-10, 1.2790000000000002E-10, 1.2858E-10, 3.0000000000000005E-14
DataValue, -1.78, 1, -1.1526000000000001E-10, 9.8E-13, 1.1475E-10, 1.1526000000000001E-10, 1.1475E-10, 9.8E-13
DataValue, -1.77075, 1, -1.0192000000000001E-10, 2.1000000000000001E-13, 1.0769E-10, 1.0192000000000001E-10, 1.0769E-10, 2.1000000000000001E-13
DataValue, -1.7615, 1, -1.0783E-10, 4.8000000000000008E-13, 1.0746000000000001E-10, 1.0783E-10, 1.0746000000000001E-10, 4.8000000000000008E-13
DataValue, -1.75225, 1, -1.0587E-10, 8.8000000000000009E-13, 1.0664E-10, 1.0587E-10, 1.0664E-10, 8.8000000000000009E-13
DataValue, -1.743, 1, -9.6890000000000014E-11, 1.2400000000000002E-12, 9.9020000000000011E-11, 9.6890000000000014E-11, 9.9020000000000011E-11, 1.2400000000000002E-12
DataValue, -1.7337500000000001, 1, -9.192E-11, 1.2000000000000002E-13, 9.755E-11, 9.192E-11, 9.755E-11, 1.2000000000000002E-13
DataValue, -1.7245000000000001, 1, -1.1381E-10, 1.5000000000000002E-13, 1.1227E-10, 1.1381E-10, 1.1227E-10, 1.5000000000000002E-13
DataValue, -1.7155, 1, -1.0592000000000001E-10, -6.0000000000000007E-13, 1.0440000000000001E-10, 1.0592000000000001E-10, 1.0440000000000001E-10, 6.0000000000000007E-13
DataValue, -1.70625, 1, -1.0393000000000001E-10, -1.9000000000000002E-13, 1.0104000000000001E-10, 1.0393000000000001E-10, 1.0104000000000001E-10, 1.9000000000000002E-13
DataValue, -1.697, 1, -9.779E-11, -6.9000000000000009E-13, 9.5550000000000009E-11, 9.779E-11, 9.5550000000000009E-11, 6.9000000000000009E-13
DataValue, -1.68775, 1, -7.29E-11, -6.400000000000001E-13, 8.111E-11, 7.29E-11, 8.111E-11, 6.400000000000001E-13
DataValue, -1.6785, 1, -9.418E-11, -4.5000000000000005E-13, 8.905E-11, 9.418E-11, 8.905E-11, 4.5000000000000005E-13
DataValue, -1.6692500000000001, 1, -8.527E-11, -1.1500000000000002E-12, 8.995000000000001E-11, 8.527E-11, 8.995000000000001E-11, 1.1500000000000002E-12
DataValue, -1.6600000000000001, 1, -8.7300000000000011E-11, 6.3E-13, 8.95E-11, 8.7300000000000011E-11, 8.95E-11, 6.3E-13
DataValue, -1.65075, 1, -9.73E-11, -3.0000000000000005E-14, 7.954E-11, 9.73E-11, 7.954E-11, 3.0000000000000005E-14
DataValue, -1.6415, 1, -8.238E-11, -7E-14, 8.0880000000000009E-11, 8.238E-11, 8.0880000000000009E-11, 7E-14
DataValue, -1.63225, 1, -8.371E-11, -9.0000000000000008E-14, 7.8640000000000012E-11, 8.371E-11, 7.8640000000000012E-11, 9.0000000000000008E-14
DataValue, -1.623, 1, -7.1180000000000006E-11, -3.5E-13, 7.337E-11, 7.1180000000000006E-11, 7.337E-11, 3.5E-13
DataValue, -1.61375, 1, -7.746000000000001E-11, 1.04E-12, 8.081E-11, 7.746000000000001E-11, 8.081E-11, 1.04E-12
DataValue, -1.6045, 1, -7.360000000000001E-11, 1.1600000000000001E-12, 7.131000000000001E-11, 7.360000000000001E-11, 7.131000000000001E-11, 1.1600000000000001E-12
DataValue, -1.5955000000000001, 1, -7.549E-11, 4.0000000000000006E-14, 7.2520000000000012E-11, 7.549E-11, 7.2520000000000012E-11, 4.0000000000000006E-14
