
SetupTitle, Vd=1V(-2.5,3.5)
PrimitiveTest, I/V Sweep
TestParameter, Context.MainFrame, B1500A
TestParameter, Channel.UnitType, SMU, SMU, SMU
TestParameter, Channel.Unit, SMU1:HR, SMU2:HR, SMU3:HR
TestParameter, Channel.IName, Ig, Is, Id
TestParameter, Channel.VName, Vg, Vs, Vd
TestParameter, Channel.Mode, V, V, V
TestParameter, Channel.Func, VAR1, CONST, CONST
TestParameter, Channel.Index, 
TestParameter, Channel.Time, 
TestParameter, Measurement.Port.Unit, SMU1:HR, SMU2:HR, SMU3:HR
TestParameter, Measurement.Port.SeriesResistor, NONE, NONE, NONE
TestParameter, Measurement.Port.Filter, ON, ON, ON
TestParameter, Measurement.Port.OutputVoltageComparison, 0, 0, 0
TestParameter, Measurement.Primary.Locus, Double
TestParameter, Measurement.Primary.Scale, LINEAR
TestParameter, Measurement.Primary.Start, -2.5
TestParameter, Measurement.Primary.Stop, 3.5
TestParameter, Measurement.Primary.Step, 0.00925
TestParameter, Measurement.Primary.Compliance, 0.1
TestParameter, Measurement.Primary.PowerCompliance, 0
TestParameter, Measurement.Aborting.Condition, CONTINUE AT ANY
TestParameter, Measurement.PostOutput.Value, START
TestParameter, Measurement.PostOutput.Retention, OFF
TestParameter, Measurement.Bias.Source, -2.5, 0, 1
TestParameter, Measurement.Bias.Compliance, 0.1, 0.1, 0.1
TestParameter, Measurement.Monitor.Unit, SMU1:HR, SMU2:HR, SMU3:HR
TestParameter, Measurement.Monitor.Adc, HR ADC, HR ADC, HR ADC
TestParameter, Measurement.Monitor.Measurement, Compliance Side, Compliance Side, Compliance Side
TestParameter, Measurement.Monitor.RangingMode, LIMITED, LIMITED, LIMITED
TestParameter, Measurement.Monitor.RangeBoundary, 1nA, 1nA, 1nA
TestParameter, Measurement.Monitor.RangeRating, BY FULL RANGE, BY FULL RANGE, BY FULL RANGE
TestParameter, Measurement.Monitor.RangeRatingCoeff, 50, 50, 50
TestParameter, Measurement.Timing.Hold, 0
TestParameter, Measurement.Timing.Delay, 0
TestParameter, Measurement.Adc.HighSpeed.Mode, AUTO
TestParameter, Measurement.Adc.HighSpeed.Coeff, 1
TestParameter, Measurement.Adc.HighResolution.AutoZero, OFF
TestParameter, Measurement.Adc.HighResolution.Mode, AUTO
TestParameter, Measurement.Adc.HighResolution.Coeff, 3
TestParameter, Measurement.WaitTime.Source.Coeff, 1
TestParameter, Measurement.WaitTime.Source.Offset, 0
TestParameter, Measurement.WaitTime.Monitor.Coeff, 1
TestParameter, Measurement.WaitTime.Monitor.Offset, 0
TestParameter, Function.User.Name, absIg, absId, absIs
TestParameter, Function.User.Unit, A, A, A
TestParameter, Function.User.Definition, abs(Ig), abs(Id), abs(Is)
TestParameter, Output.Graph.Enabled, true
TestParameter, Output.Graph.AutoScaling, false
TestParameter, Output.Graph.XAxis.Data, Vg
TestParameter, Output.Graph.XAxis.Scale, Linear
TestParameter, Output.Graph.XAxis.Left, -2.5
TestParameter, Output.Graph.XAxis.Right, 3.5
TestParameter, Output.Graph.XAxis.RunTimeAutoScale, true
TestParameter, Output.Graph.YAxis.Data, absIg, absId, absIs
TestParameter, Output.Graph.YAxis.Scale, Log, Log, Log
TestParameter, Output.Graph.YAxis.Bottom, 0, 0, 0
TestParameter, Output.Graph.YAxis.Top, 1, 1, 1
TestParameter, Output.Graph.YAxis.Group, Group 1, Group 1, Group 1
TestParameter, Output.Graph.YAxis.RunTimeAutoScale, true, true, true
TestParameter, Output.List.Data, Vg, Vd, Ig, Id, Is, absIg, absId, absIs
TestParameter, AutoAnalysis.Interpolation, false
TestParameter, AutoAnalysis.Var2StepCount, 1
TestParameter, AutoAnalysis.Var2StepScript, 
TestParameter, AutoAnalysis.Line1.Enabled, false
TestParameter, AutoAnalysis.Line1.Type, 1
TestParameter, AutoAnalysis.Line1.Fix, True
TestParameter, AutoAnalysis.Line1.YAxis, 0
TestParameter, AutoAnalysis.Line1.Point1.Type, 0
TestParameter, AutoAnalysis.Line1.Point1.XY.X, 
TestParameter, AutoAnalysis.Line1.Point1.XY.Y, 
TestParameter, AutoAnalysis.Line1.Point1.Data.Var, 
TestParameter, AutoAnalysis.Line1.Point1.Data.Condition, 
TestParameter, AutoAnalysis.Line1.Point1.Data.Start, false
TestParameter, AutoAnalysis.Line1.Point1.Data.StartVar, 
TestParameter, AutoAnalysis.Line1.Point1.Data.StartCondition, 
TestParameter, AutoAnalysis.Line1.Point2.Type, 0
TestParameter, AutoAnalysis.Line1.Point2.XY.X, 
TestParameter, AutoAnalysis.Line1.Point2.XY.Y, 
TestParameter, AutoAnalysis.Line1.Point2.Data.Var, 
TestParameter, AutoAnalysis.Line1.Point2.Data.Condition, 
TestParameter, AutoAnalysis.Line1.Point2.Data.Start, false
TestParameter, AutoAnalysis.Line1.Point2.Data.StartVar, 
TestParameter, AutoAnalysis.Line1.Point2.Data.StartCondition, 
TestParameter, AutoAnalysis.Line1.GradientExpr, 0
TestParameter, AutoAnalysis.Line2.Enabled, false
TestParameter, AutoAnalysis.Line2.Type, 1
TestParameter, AutoAnalysis.Line2.Fix, True
TestParameter, AutoAnalysis.Line2.YAxis, 0
TestParameter, AutoAnalysis.Line2.Point1.Type, 0
TestParameter, AutoAnalysis.Line2.Point1.XY.X, 
TestParameter, AutoAnalysis.Line2.Point1.XY.Y, 
TestParameter, AutoAnalysis.Line2.Point1.Data.Var, 
TestParameter, AutoAnalysis.Line2.Point1.Data.Condition, 
TestParameter, AutoAnalysis.Line2.Point1.Data.Start, false
TestParameter, AutoAnalysis.Line2.Point1.Data.StartVar, 
TestParameter, AutoAnalysis.Line2.Point1.Data.StartCondition, 
TestParameter, AutoAnalysis.Line2.Point2.Type, 0
TestParameter, AutoAnalysis.Line2.Point2.XY.X, 
TestParameter, AutoAnalysis.Line2.Point2.XY.Y, 
TestParameter, AutoAnalysis.Line2.Point2.Data.Var, 
TestParameter, AutoAnalysis.Line2.Point2.Data.Condition, 
TestParameter, AutoAnalysis.Line2.Point2.Data.Start, false
TestParameter, AutoAnalysis.Line2.Point2.Data.StartVar, 
TestParameter, AutoAnalysis.Line2.Point2.Data.StartCondition, 
TestParameter, AutoAnalysis.Line2.GradientExpr, 0
TestParameter, AutoAnalysis.Marker.Enabled, false
TestParameter, AutoAnalysis.Marker.Data.Var, 
TestParameter, AutoAnalysis.Marker.Data.Condition, 
TestParameter, AutoAnalysis.Marker.Data.Start, false
TestParameter, AutoAnalysis.Marker.Data.StartVar, 
TestParameter, AutoAnalysis.Marker.Data.StartCondition, 
MetaData, TestRecord.EntryPoint, true
MetaData, TestRecord.RecordTime, 04/07/2025 16:48:53
MetaData, TestRecord.TestTarget, BGAF 3_1 206 W64-L6
MetaData, TestRecord.IterationIndex, 32
MetaData, TestRecord.Preservation, true
MetaData, TestRecord.Flag, 
MetaData, TestRecord.Remarks, 
MetaData, TestRecord.LinkKey, cf5fff08-ce0c-4bc8-893f-97c0b3e20675
MetaData, TestRecord.Parameters, 
Dimension1, 1302, 1302, 1302, 1302, 1302, 1302, 1302, 1302
Dimension2, 1, 1, 1, 1, 1, 1, 1, 1
DataName, Vg, Vd, Ig, Is, Id, absIg, absId, absIs
DataValue, -2.5, 1, -2.4537E-10, -8.7E-13, 2.5733000000000003E-10, 2.4537E-10, 2.5733000000000003E-10, 8.7E-13
DataValue, -2.4907500000000002, 1, -2.4896000000000004E-10, -7.100000000000001E-13, 2.4838E-10, 2.4896000000000004E-10, 2.4838E-10, 7.100000000000001E-13
DataValue, -2.4815, 1, -2.4206000000000004E-10, -7.100000000000001E-13, 2.4246E-10, 2.4206000000000004E-10, 2.4246E-10, 7.100000000000001E-13
DataValue, -2.47225, 1, -2.3586E-10, -8.7E-13, 2.352E-10, 2.3586E-10, 2.352E-10, 8.7E-13
DataValue, -2.463, 1, -2.2826000000000002E-10, -8.300000000000001E-13, 2.2707000000000002E-10, 2.2826000000000002E-10, 2.2707000000000002E-10, 8.300000000000001E-13
DataValue, -2.45375, 1, -2.204E-10, -5E-13, 2.1800000000000002E-10, 2.204E-10, 2.1800000000000002E-10, 5E-13
DataValue, -2.4445, 1, -2.1572E-10, -8E-13, 2.1217000000000003E-10, 2.1572E-10, 2.1217000000000003E-10, 8E-13
DataValue, -2.4355, 1, -2.0947000000000003E-10, -4.8000000000000008E-13, 2.0719E-10, 2.0947000000000003E-10, 2.0719E-10, 4.8000000000000008E-13
DataValue, -2.42625, 1, -2.0322000000000002E-10, -3.3E-13, 2.0145E-10, 2.0322000000000002E-10, 2.0145E-10, 3.3E-13
DataValue, -2.4170000000000003, 1, -1.9713000000000002E-10, 5.9E-13, 1.9564E-10, 1.9713000000000002E-10, 1.9564E-10, 5.9E-13
DataValue, -2.40775, 1, -1.8914E-10, 5.9E-13, 1.8851E-10, 1.8914E-10, 1.8851E-10, 5.9E-13
DataValue, -2.3985, 1, -1.8462E-10, 6.400000000000001E-13, 1.8354000000000002E-10, 1.8462E-10, 1.8354000000000002E-10, 6.400000000000001E-13
DataValue, -2.38925, 1, -1.79E-10, 1.08E-12, 1.7868000000000002E-10, 1.79E-10, 1.7868000000000002E-10, 1.08E-12
DataValue, -2.38, 1, -1.7324000000000001E-10, 9.4E-13, 1.7386E-10, 1.7324000000000001E-10, 1.7386E-10, 9.4E-13
DataValue, -2.37075, 1, -1.6666000000000002E-10, 1.0500000000000002E-12, 1.6856E-10, 1.6666000000000002E-10, 1.6856E-10, 1.0500000000000002E-12
DataValue, -2.3615, 1, -1.6152E-10, 9.4E-13, 1.6317000000000002E-10, 1.6152E-10, 1.6317000000000002E-10, 9.4E-13
DataValue, -2.35225, 1, -1.5574000000000002E-10, 2E-13, 1.5955E-10, 1.5574000000000002E-10, 1.5955E-10, 2E-13
DataValue, -2.343, 1, -1.5200000000000002E-10, -9.0000000000000008E-14, 1.5578E-10, 1.5200000000000002E-10, 1.5578E-10, 9.0000000000000008E-14
DataValue, -2.33375, 1, -1.4681E-10, -6.8E-13, 1.5087000000000002E-10, 1.4681E-10, 1.5087000000000002E-10, 6.8E-13
DataValue, -2.3245, 1, -1.4194E-10, -1.1000000000000001E-13, 1.4262000000000002E-10, 1.4194E-10, 1.4262000000000002E-10, 1.1000000000000001E-13
DataValue, -2.3155, 1, -1.3726E-10, -6.8E-13, 1.3814E-10, 1.3726E-10, 1.3814E-10, 6.8E-13
DataValue, -2.30625, 1, -1.3389000000000002E-10, -9.6000000000000015E-13, 1.3646E-10, 1.3389000000000002E-10, 1.3646E-10, 9.6000000000000015E-13
DataValue, -2.297, 1, -1.2965E-10, -9.4E-13, 1.3216E-10, 1.2965E-10, 1.3216E-10, 9.4E-13
DataValue, -2.28775, 1, -1.2642000000000001E-10, -4.1E-13, 1.2709E-10, 1.2642000000000001E-10, 1.2709E-10, 4.1E-13
DataValue, -2.2785, 1, -1.2224E-10, 4.6000000000000006E-13, 1.2221E-10, 1.2224E-10, 1.2221E-10, 4.6000000000000006E-13
DataValue, -2.26925, 1, -1.1849000000000002E-10, -8.9E-13, 1.1828E-10, 1.1849000000000002E-10, 1.1828E-10, 8.9E-13
DataValue, -2.2600000000000002, 1, -1.1540000000000001E-10, 1.1000000000000001E-13, 1.1560000000000001E-10, 1.1540000000000001E-10, 1.1560000000000001E-10, 1.1000000000000001E-13
DataValue, -2.25075, 1, -1.1181000000000001E-10, 4.2000000000000003E-13, 1.1153000000000001E-10, 1.1181000000000001E-10, 1.1153000000000001E-10, 4.2000000000000003E-13
DataValue, -2.2415, 1, -1.0864000000000001E-10, 1E-12, 1.0903000000000001E-10, 1.0864000000000001E-10, 1.0903000000000001E-10, 1E-12
DataValue, -2.23225, 1, -1.0573E-10, 1.1500000000000002E-12, 1.0509000000000001E-10, 1.0573E-10, 1.0509000000000001E-10, 1.1500000000000002E-12
DataValue, -2.223, 1, -1.0285000000000001E-10, -3.7000000000000004E-13, 1.0288000000000001E-10, 1.0285000000000001E-10, 1.0288000000000001E-10, 3.7000000000000004E-13
DataValue, -2.21375, 1, -1.0198E-10, 3.6000000000000003E-13, 9.92E-11, 1.0198E-10, 9.92E-11, 3.6000000000000003E-13
DataValue, -2.2045, 1, -9.804E-11, 9.0000000000000008E-14, 9.735E-11, 9.804E-11, 9.735E-11, 9.0000000000000008E-14
DataValue, -2.1955, 1, -9.548E-11, -5.6E-13, 9.6100000000000009E-11, 9.548E-11, 9.6100000000000009E-11, 5.6E-13
DataValue, -2.1862500000000002, 1, -9.363E-11, -4.1E-13, 9.291E-11, 9.363E-11, 9.291E-11, 4.1E-13
DataValue, -2.177, 1, -9.0720000000000011E-11, -6.1E-13, 8.9100000000000008E-11, 9.0720000000000011E-11, 8.9100000000000008E-11, 6.1E-13
DataValue, -2.16775, 1, -8.812E-11, -8.300000000000001E-13, 8.711000000000001E-11, 8.812E-11, 8.711000000000001E-11, 8.300000000000001E-13
DataValue, -2.1585, 1, -8.5010000000000012E-11, -7.5E-13, 8.23E-11, 8.5010000000000012E-11, 8.23E-11, 7.5E-13
DataValue, -2.14925, 1, -8.274E-11, -2.0000000000000003E-14, 8.1680000000000009E-11, 8.274E-11, 8.1680000000000009E-11, 2.0000000000000003E-14
DataValue, -2.14, 1, -7.927E-11, -1.3000000000000001E-12, 7.621E-11, 7.927E-11, 7.621E-11, 1.3000000000000001E-12
DataValue, -2.13075, 1, -7.728E-11, -1.1900000000000002E-12, 7.485E-11, 7.728E-11, 7.485E-11, 1.1900000000000002E-12
DataValue, -2.1215, 1, -7.439E-11, -3.9000000000000005E-13, 7.2190000000000011E-11, 7.439E-11, 7.2190000000000011E-11, 3.9000000000000005E-13
DataValue, -2.11225, 1, -7.1610000000000012E-11, -8.1000000000000008E-13, 6.9410000000000009E-11, 7.1610000000000012E-11, 6.9410000000000009E-11, 8.1000000000000008E-13
DataValue, -2.103, 1, -6.847000000000001E-11, 3.5E-13, 6.706E-11, 6.847000000000001E-11, 6.706E-11, 3.5E-13
DataValue, -2.09375, 1, -6.6460000000000009E-11, -1.7E-13, 6.625E-11, 6.6460000000000009E-11, 6.625E-11, 1.7E-13
DataValue, -2.0845000000000002, 1, -6.537E-11, 1.09E-12, 6.32E-11, 6.537E-11, 6.32E-11, 1.09E-12
DataValue, -2.0755, 1, -6.2380000000000008E-11, 4E-13, 6.255E-11, 6.2380000000000008E-11, 6.255E-11, 4E-13
DataValue, -2.06625, 1, -5.903E-11, 1.02E-12, 6.207E-11, 5.903E-11, 6.207E-11, 1.02E-12
DataValue, -2.057, 1, -5.7090000000000007E-11, 4.4000000000000004E-13, 5.936E-11, 5.7090000000000007E-11, 5.936E-11, 4.4000000000000004E-13
DataValue, -2.04775, 1, -5.5220000000000004E-11, -2.5E-13, 5.75E-11, 5.5220000000000004E-11, 5.75E-11, 2.5E-13
DataValue, -2.0385, 1, -5.32E-11, -1.8000000000000002E-13, 5.6430000000000006E-11, 5.32E-11, 5.6430000000000006E-11, 1.8000000000000002E-13
DataValue, -2.02925, 1, -5.0930000000000005E-11, -9.0000000000000008E-14, 5.422E-11, 5.0930000000000005E-11, 5.422E-11, 9.0000000000000008E-14
DataValue, -2.02, 1, -4.8520000000000004E-11, -2.5E-13, 5.171E-11, 4.8520000000000004E-11, 5.171E-11, 2.5E-13
DataValue, -2.0107500000000003, 1, -4.723E-11, -1.1000000000000002E-12, 4.8700000000000004E-11, 4.723E-11, 4.8700000000000004E-11, 1.1000000000000002E-12
DataValue, -2.0015, 1, -4.647E-11, -5.6E-13, 4.8860000000000006E-11, 4.647E-11, 4.8860000000000006E-11, 5.6E-13
DataValue, -1.99225, 1, -4.501E-11, -1E-13, 4.785E-11, 4.501E-11, 4.785E-11, 1E-13
DataValue, -1.983, 1, -4.3830000000000005E-11, -4.6000000000000006E-13, 4.5870000000000005E-11, 4.3830000000000005E-11, 4.5870000000000005E-11, 4.6000000000000006E-13
DataValue, -1.9737500000000001, 1, -4.21E-11, -2.5E-13, 4.2910000000000004E-11, 4.21E-11, 4.2910000000000004E-11, 2.5E-13
DataValue, -1.9645000000000001, 1, -4.158E-11, 6.6E-13, 4.2010000000000005E-11, 4.158E-11, 4.2010000000000005E-11, 6.6E-13
DataValue, -1.9555, 1, -4.115E-11, 6.0000000000000007E-13, 4.0260000000000005E-11, 4.115E-11, 4.0260000000000005E-11, 6.0000000000000007E-13
DataValue, -1.94625, 1, -4.0620000000000004E-11, 9.4E-13, 3.8650000000000004E-11, 4.0620000000000004E-11, 3.8650000000000004E-11, 9.4E-13
DataValue, -1.937, 1, -3.934E-11, 1.0100000000000001E-12, 3.914E-11, 3.934E-11, 3.914E-11, 1.0100000000000001E-12
DataValue, -1.92775, 1, -3.883E-11, 8.8000000000000009E-13, 3.8550000000000005E-11, 3.883E-11, 3.8550000000000005E-11, 8.8000000000000009E-13
DataValue, -1.9185, 1, -3.8480000000000006E-11, 5.4E-13, 3.719E-11, 3.8480000000000006E-11, 3.719E-11, 5.4E-13
DataValue, -1.9092500000000001, 1, -3.747E-11, 8.1000000000000008E-13, 3.7900000000000006E-11, 3.747E-11, 3.7900000000000006E-11, 8.1000000000000008E-13
DataValue, -1.9000000000000001, 1, -3.557E-11, 4.9E-13, 3.4000000000000005E-11, 3.557E-11, 3.4000000000000005E-11, 4.9E-13
DataValue, -1.89075, 1, -3.533E-11, 7.8000000000000011E-13, 3.383E-11, 3.533E-11, 3.383E-11, 7.8000000000000011E-13
DataValue, -1.8815, 1, -3.39E-11, -1.3E-13, 3.362E-11, 3.39E-11, 3.362E-11, 1.3E-13
DataValue, -1.87225, 1, -3.3450000000000005E-11, 6.0000000000000009E-14, 3.067E-11, 3.3450000000000005E-11, 3.067E-11, 6.0000000000000009E-14
DataValue, -1.863, 1, -3.208E-11, -1.1000000000000001E-13, 3.084E-11, 3.208E-11, 3.084E-11, 1.1000000000000001E-13
DataValue, -1.85375, 1, -3.2320000000000004E-11, -1.08E-12, 3.0530000000000003E-11, 3.2320000000000004E-11, 3.0530000000000003E-11, 1.08E-12
DataValue, -1.8445, 1, -3.136E-11, -7.3E-13, 2.9660000000000004E-11, 3.136E-11, 2.9660000000000004E-11, 7.3E-13
DataValue, -1.8355000000000001, 1, -2.975E-11, -1.08E-12, 2.786E-11, 2.975E-11, 2.786E-11, 1.08E-12
DataValue, -1.82625, 1, -2.826E-11, -7.6000000000000009E-13, 2.6140000000000003E-11, 2.826E-11, 2.6140000000000003E-11, 7.6000000000000009E-13
DataValue, -1.817, 1, -2.7580000000000003E-11, -1.45E-12, 2.4540000000000003E-11, 2.7580000000000003E-11, 2.4540000000000003E-11, 1.45E-12
DataValue, -1.80775, 1, -2.6590000000000002E-11, -5.9E-13, 2.44E-11, 2.6590000000000002E-11, 2.44E-11, 5.9E-13
DataValue, -1.7985, 1, -2.5350000000000002E-11, 7E-13, 2.236E-11, 2.5350000000000002E-11, 2.236E-11, 7E-13
DataValue, -1.78925, 1, -2.387E-11, 1.1900000000000002E-12, 2.2110000000000002E-11, 2.387E-11, 2.2110000000000002E-11, 1.1900000000000002E-12
DataValue, -1.78, 1, -2.334E-11, 3.6000000000000003E-13, 2.1480000000000003E-11, 2.334E-11, 2.1480000000000003E-11, 3.6000000000000003E-13
DataValue, -1.77075, 1, -2.1970000000000003E-11, 3.2000000000000005E-13, 2.1440000000000002E-11, 2.1970000000000003E-11, 2.1440000000000002E-11, 3.2000000000000005E-13
DataValue, -1.7615, 1, -1.9460000000000003E-11, 7.9000000000000007E-13, 2.0170000000000003E-11, 1.9460000000000003E-11, 2.0170000000000003E-11, 7.9000000000000007E-13
DataValue, -1.75225, 1, -1.8290000000000002E-11, 4E-13, 2.038E-11, 1.8290000000000002E-11, 2.038E-11, 4E-13
DataValue, -1.743, 1, -1.792E-11, 2.2000000000000002E-13, 2.061E-11, 1.792E-11, 2.061E-11, 2.2000000000000002E-13
DataValue, -1.7337500000000001, 1, -1.664E-11, 7E-14, 1.8400000000000002E-11, 1.664E-11, 1.8400000000000002E-11, 7E-14
DataValue, -1.7245000000000001, 1, -1.577E-11, 1.1000000000000001E-13, 1.9000000000000002E-11, 1.577E-11, 1.9000000000000002E-11, 1.1000000000000001E-13
DataValue, -1.7155, 1, -1.562E-11, -2.4000000000000004E-13, 1.879E-11, 1.562E-11, 1.879E-11, 2.4000000000000004E-13
DataValue, -1.70625, 1, -1.402E-11, -6.0000000000000009E-14, 1.8360000000000002E-11, 1.402E-11, 1.8360000000000002E-11, 6.0000000000000009E-14
DataValue, -1.697, 1, -1.3540000000000001E-11, -5.2E-13, 1.6940000000000002E-11, 1.3540000000000001E-11, 1.6940000000000002E-11, 5.2E-13
DataValue, -1.68775, 1, -1.3900000000000002E-11, -5.7E-13, 1.5920000000000002E-11, 1.3900000000000002E-11, 1.5920000000000002E-11, 5.7E-13
DataValue, -1.6785, 1, -1.272E-11, -5.1E-13, 1.6780000000000002E-11, 1.272E-11, 1.6780000000000002E-11, 5.1E-13
DataValue, -1.6692500000000001, 1, -1.3070000000000002E-11, -1.7E-13, 1.517E-11, 1.3070000000000002E-11, 1.517E-11, 1.7E-13
DataValue, -1.6600000000000001, 1, -1.291E-11, -6.400000000000001E-13, 1.3480000000000002E-11, 1.291E-11, 1.3480000000000002E-11, 6.400000000000001E-13
DataValue, -1.65075, 1, -1.322E-11, 4.6000000000000006E-13, 1.3600000000000002E-11, 1.322E-11, 1.3600000000000002E-11, 4.6000000000000006E-13
DataValue, -1.6415, 1, -1.342E-11, 3.1000000000000004E-13, 1.2880000000000002E-11, 1.342E-11, 1.2880000000000002E-11, 3.1000000000000004E-13
DataValue, -1.63225, 1, -1.3250000000000001E-11, 5.1E-13, 1.26E-11, 1.3250000000000001E-11, 1.26E-11, 5.1E-13
DataValue, -1.623, 1, -1.2840000000000001E-11, 9.2000000000000012E-13, 1.28E-11, 1.2840000000000001E-11, 1.28E-11, 9.2000000000000012E-13
DataValue, -1.61375, 1, -1.252E-11, 1.02E-12, 1.3250000000000001E-11, 1.252E-11, 1.3250000000000001E-11, 1.02E-12
DataValue, -1.6045, 1, -1.313E-11, 9.8E-13, 9.14E-12, 1.313E-11, 9.14E-12, 9.8E-13
DataValue, -1.5955000000000001, 1, -1.2850000000000001E-11, 9.9E-13, 1.289E-11, 1.2850000000000001E-11, 1.289E-11, 9.9E-13
DataValue, -1.58625, 1, -1.3650000000000001E-11, 4.8000000000000008E-13, 1.16E-11, 1.3650000000000001E-11, 1.16E-11, 4.8000000000000008E-13
DataValue, -1.577, 1, -1.3270000000000001E-11, 5.6E-13, 1.198E-11, 1.3270000000000001E-11, 1.198E-11, 5.6E-13
DataValue, -1.56775, 1, -1.2680000000000002E-11, 8.0000000000000013E-14, 1.1550000000000002E-11, 1.2680000000000002E-11, 1.1550000000000002E-11, 8.0000000000000013E-14
DataValue, -1.5585, 1, -1.2040000000000001E-11, 4.0000000000000006E-14, 1.109E-11, 1.2040000000000001E-11, 1.109E-11, 4.0000000000000006E-14
DataValue, -1.54925, 1, -1.2150000000000001E-11, -4.6000000000000006E-13, 9.5200000000000014E-12, 1.2150000000000001E-11, 9.5200000000000014E-12, 4.6000000000000006E-13
