
SetupTitle, Vd=1V(-2.5,3.5)
PrimitiveTest, I/V Sweep
TestParameter, Context.MainFrame, B1500A
TestParameter, Channel.UnitType, SMU, SMU, SMU
TestParameter, Channel.Unit, SMU1:HR, SMU2:HR, SMU3:HR
TestParameter, Channel.IName, Ig, Is, Id
TestParameter, Channel.VName, Vg, Vs, Vd
TestParameter, Channel.Mode, V, V, V
TestParameter, Channel.Func, VAR1, CONST, CONST
TestParameter, Channel.Index, 
TestParameter, Channel.Time, 
TestParameter, Measurement.Port.Unit, SMU1:HR, SMU2:HR, SMU3:HR
TestParameter, Measurement.Port.SeriesResistor, NONE, NONE, NONE
TestParameter, Measurement.Port.Filter, ON, ON, ON
TestParameter, Measurement.Port.OutputVoltageComparison, 0, 0, 0
TestParameter, Measurement.Primary.Locus, Double
TestParameter, Measurement.Primary.Scale, LINEAR
TestParameter, Measurement.Primary.Start, -2.5
TestParameter, Measurement.Primary.Stop, 3.5
TestParameter, Measurement.Primary.Step, 0.00925
TestParameter, Measurement.Primary.Compliance, 0.1
TestParameter, Measurement.Primary.PowerCompliance, 0
TestParameter, Measurement.Aborting.Condition, CONTINUE AT ANY
TestParameter, Measurement.PostOutput.Value, START
TestParameter, Measurement.PostOutput.Retention, OFF
TestParameter, Measurement.Bias.Source, -2.5, 0, 1
TestParameter, Measurement.Bias.Compliance, 0.1, 0.1, 0.1
TestParameter, Measurement.Monitor.Unit, SMU1:HR, SMU2:HR, SMU3:HR
TestParameter, Measurement.Monitor.Adc, HR ADC, HR ADC, HR ADC
TestParameter, Measurement.Monitor.Measurement, Compliance Side, Compliance Side, Compliance Side
TestParameter, Measurement.Monitor.RangingMode, LIMITED, LIMITED, LIMITED
TestParameter, Measurement.Monitor.RangeBoundary, 1nA, 1nA, 1nA
TestParameter, Measurement.Monitor.RangeRating, BY FULL RANGE, BY FULL RANGE, BY FULL RANGE
TestParameter, Measurement.Monitor.RangeRatingCoeff, 50, 50, 50
TestParameter, Measurement.Timing.Hold, 0
TestParameter, Measurement.Timing.Delay, 0
TestParameter, Measurement.Adc.HighSpeed.Mode, AUTO
TestParameter, Measurement.Adc.HighSpeed.Coeff, 1
TestParameter, Measurement.Adc.HighResolution.AutoZero, OFF
TestParameter, Measurement.Adc.HighResolution.Mode, AUTO
TestParameter, Measurement.Adc.HighResolution.Coeff, 3
TestParameter, Measurement.WaitTime.Source.Coeff, 1
TestParameter, Measurement.WaitTime.Source.Offset, 0
TestParameter, Measurement.WaitTime.Monitor.Coeff, 1
TestParameter, Measurement.WaitTime.Monitor.Offset, 0
TestParameter, Function.User.Name, absIg, absId, absIs
TestParameter, Function.User.Unit, A, A, A
TestParameter, Function.User.Definition, abs(Ig), abs(Id), abs(Is)
TestParameter, Output.Graph.Enabled, true
TestParameter, Output.Graph.AutoScaling, false
TestParameter, Output.Graph.XAxis.Data, Vg
TestParameter, Output.Graph.XAxis.Scale, Linear
TestParameter, Output.Graph.XAxis.Left, -2.5
TestParameter, Output.Graph.XAxis.Right, 3.5
TestParameter, Output.Graph.XAxis.RunTimeAutoScale, true
TestParameter, Output.Graph.YAxis.Data, absIg, absId, absIs
TestParameter, Output.Graph.YAxis.Scale, Log, Log, Log
TestParameter, Output.Graph.YAxis.Bottom, 0, 0, 0
TestParameter, Output.Graph.YAxis.Top, 1, 1, 1
TestParameter, Output.Graph.YAxis.Group, Group 1, Group 1, Group 1
TestParameter, Output.Graph.YAxis.RunTimeAutoScale, true, true, true
TestParameter, Output.List.Data, Vg, Vd, Ig, Id, Is, absIg, absId, absIs
TestParameter, AutoAnalysis.Interpolation, false
TestParameter, AutoAnalysis.Var2StepCount, 1
TestParameter, AutoAnalysis.Var2StepScript, 
TestParameter, AutoAnalysis.Line1.Enabled, false
TestParameter, AutoAnalysis.Line1.Type, 1
TestParameter, AutoAnalysis.Line1.Fix, True
TestParameter, AutoAnalysis.Line1.YAxis, 0
TestParameter, AutoAnalysis.Line1.Point1.Type, 0
TestParameter, AutoAnalysis.Line1.Point1.XY.X, 
TestParameter, AutoAnalysis.Line1.Point1.XY.Y, 
TestParameter, AutoAnalysis.Line1.Point1.Data.Var, 
TestParameter, AutoAnalysis.Line1.Point1.Data.Condition, 
TestParameter, AutoAnalysis.Line1.Point1.Data.Start, false
TestParameter, AutoAnalysis.Line1.Point1.Data.StartVar, 
TestParameter, AutoAnalysis.Line1.Point1.Data.StartCondition, 
TestParameter, AutoAnalysis.Line1.Point2.Type, 0
TestParameter, AutoAnalysis.Line1.Point2.XY.X, 
TestParameter, AutoAnalysis.Line1.Point2.XY.Y, 
TestParameter, AutoAnalysis.Line1.Point2.Data.Var, 
TestParameter, AutoAnalysis.Line1.Point2.Data.Condition, 
TestParameter, AutoAnalysis.Line1.Point2.Data.Start, false
TestParameter, AutoAnalysis.Line1.Point2.Data.StartVar, 
TestParameter, AutoAnalysis.Line1.Point2.Data.StartCondition, 
TestParameter, AutoAnalysis.Line1.GradientExpr, 0
TestParameter, AutoAnalysis.Line2.Enabled, false
TestParameter, AutoAnalysis.Line2.Type, 1
TestParameter, AutoAnalysis.Line2.Fix, True
TestParameter, AutoAnalysis.Line2.YAxis, 0
TestParameter, AutoAnalysis.Line2.Point1.Type, 0
TestParameter, AutoAnalysis.Line2.Point1.XY.X, 
TestParameter, AutoAnalysis.Line2.Point1.XY.Y, 
TestParameter, AutoAnalysis.Line2.Point1.Data.Var, 
TestParameter, AutoAnalysis.Line2.Point1.Data.Condition, 
TestParameter, AutoAnalysis.Line2.Point1.Data.Start, false
TestParameter, AutoAnalysis.Line2.Point1.Data.StartVar, 
TestParameter, AutoAnalysis.Line2.Point1.Data.StartCondition, 
TestParameter, AutoAnalysis.Line2.Point2.Type, 0
TestParameter, AutoAnalysis.Line2.Point2.XY.X, 
TestParameter, AutoAnalysis.Line2.Point2.XY.Y, 
TestParameter, AutoAnalysis.Line2.Point2.Data.Var, 
TestParameter, AutoAnalysis.Line2.Point2.Data.Condition, 
TestParameter, AutoAnalysis.Line2.Point2.Data.Start, false
TestParameter, AutoAnalysis.Line2.Point2.Data.StartVar, 
TestParameter, AutoAnalysis.Line2.Point2.Data.StartCondition, 
TestParameter, AutoAnalysis.Line2.GradientExpr, 0
TestParameter, AutoAnalysis.Marker.Enabled, false
TestParameter, AutoAnalysis.Marker.Data.Var, 
TestParameter, AutoAnalysis.Marker.Data.Condition, 
TestParameter, AutoAnalysis.Marker.Data.Start, false
TestParameter, AutoAnalysis.Marker.Data.StartVar, 
TestParameter, AutoAnalysis.Marker.Data.StartCondition, 
MetaData, TestRecord.EntryPoint, true
MetaData, TestRecord.RecordTime, 04/07/2025 16:59:54
MetaData, TestRecord.TestTarget, BGAF 3_1 306 W64-L6
MetaData, TestRecord.IterationIndex, 39
MetaData, TestRecord.Preservation, true
MetaData, TestRecord.Flag, 
MetaData, TestRecord.Remarks, 
MetaData, TestRecord.LinkKey, 57719599-54cb-4344-b724-8459b7d7914f
MetaData, TestRecord.Parameters, 
Dimension1, 1302, 1302, 1302, 1302, 1302, 1302, 1302, 1302
Dimension2, 1, 1, 1, 1, 1, 1, 1, 1
DataName, Vg, Vd, Ig, Is, Id, absIg, absId, absIs
DataValue, -2.5, 1, -2.7238000000000005E-10, -6.400000000000001E-13, 2.7749000000000004E-10, 2.7238000000000005E-10, 2.7749000000000004E-10, 6.400000000000001E-13
DataValue, -2.4907500000000002, 1, -2.6684000000000003E-10, 3.1000000000000004E-13, 2.6548E-10, 2.6684000000000003E-10, 2.6548E-10, 3.1000000000000004E-13
DataValue, -2.4815, 1, -2.5854E-10, -1E-13, 2.5709000000000004E-10, 2.5854E-10, 2.5709000000000004E-10, 1E-13
DataValue, -2.47225, 1, -2.5124E-10, -6.2000000000000008E-13, 2.5067E-10, 2.5124E-10, 2.5067E-10, 6.2000000000000008E-13
DataValue, -2.463, 1, -2.4219E-10, -2.8E-13, 2.3885E-10, 2.4219E-10, 2.3885E-10, 2.8E-13
DataValue, -2.45375, 1, -2.3578000000000004E-10, -1.9000000000000002E-13, 2.3155000000000002E-10, 2.3578000000000004E-10, 2.3155000000000002E-10, 1.9000000000000002E-13
DataValue, -2.4445, 1, -2.2674E-10, -1.3300000000000002E-12, 2.2320000000000002E-10, 2.2674E-10, 2.2320000000000002E-10, 1.3300000000000002E-12
DataValue, -2.4355, 1, -2.1900000000000002E-10, -3.6000000000000003E-13, 2.1791000000000003E-10, 2.1900000000000002E-10, 2.1791000000000003E-10, 3.6000000000000003E-13
DataValue, -2.42625, 1, -2.1155E-10, -1.03E-12, 2.1133E-10, 2.1155E-10, 2.1133E-10, 1.03E-12
DataValue, -2.4170000000000003, 1, -2.053E-10, -1.0000000000000002E-14, 2.0537E-10, 2.053E-10, 2.0537E-10, 1.0000000000000002E-14
DataValue, -2.40775, 1, -1.9774E-10, 3.9000000000000005E-13, 1.9851000000000002E-10, 1.9774E-10, 1.9851000000000002E-10, 3.9000000000000005E-13
DataValue, -2.3985, 1, -1.9065E-10, 2.9000000000000003E-13, 1.9202000000000003E-10, 1.9065E-10, 1.9202000000000003E-10, 2.9000000000000003E-13
DataValue, -2.38925, 1, -1.828E-10, 2.6E-13, 1.8559E-10, 1.828E-10, 1.8559E-10, 2.6E-13
DataValue, -2.38, 1, -1.7832E-10, -4.0000000000000006E-14, 1.7959000000000002E-10, 1.7832E-10, 1.7959000000000002E-10, 4.0000000000000006E-14
DataValue, -2.37075, 1, -1.7215000000000002E-10, 4E-13, 1.7322000000000002E-10, 1.7215000000000002E-10, 1.7322000000000002E-10, 4E-13
DataValue, -2.3615, 1, -1.6530000000000001E-10, -1.2500000000000001E-12, 1.6727E-10, 1.6530000000000001E-10, 1.6727E-10, 1.2500000000000001E-12
DataValue, -2.35225, 1, -1.6071E-10, 9.6000000000000015E-13, 1.6124E-10, 1.6071E-10, 1.6124E-10, 9.6000000000000015E-13
DataValue, -2.343, 1, -1.5541E-10, 1.9000000000000002E-13, 1.5752000000000002E-10, 1.5541E-10, 1.5752000000000002E-10, 1.9000000000000002E-13
DataValue, -2.33375, 1, -1.4945E-10, -3.7000000000000004E-13, 1.5276000000000002E-10, 1.4945E-10, 1.5276000000000002E-10, 3.7000000000000004E-13
DataValue, -2.3245, 1, -1.4384000000000002E-10, -1.95E-12, 1.4765E-10, 1.4384000000000002E-10, 1.4765E-10, 1.95E-12
DataValue, -2.3155, 1, -1.3943E-10, 3.9000000000000005E-13, 1.4226E-10, 1.3943E-10, 1.4226E-10, 3.9000000000000005E-13
DataValue, -2.30625, 1, -1.3617E-10, -1.7E-13, 1.3812E-10, 1.3617E-10, 1.3812E-10, 1.7E-13
DataValue, -2.297, 1, -1.3052E-10, -1.41E-12, 1.3253E-10, 1.3052E-10, 1.3253E-10, 1.41E-12
DataValue, -2.28775, 1, -1.2658000000000002E-10, 2.7E-13, 1.281E-10, 1.2658000000000002E-10, 1.281E-10, 2.7E-13
DataValue, -2.2785, 1, -1.2283E-10, -1.9000000000000002E-13, 1.2428E-10, 1.2283E-10, 1.2428E-10, 1.9000000000000002E-13
DataValue, -2.26925, 1, -1.1971000000000002E-10, -5.4E-13, 1.2066E-10, 1.1971000000000002E-10, 1.2066E-10, 5.4E-13
DataValue, -2.2600000000000002, 1, -1.1622000000000001E-10, -9.8E-13, 1.1653E-10, 1.1622000000000001E-10, 1.1653E-10, 9.8E-13
DataValue, -2.25075, 1, -1.1215000000000001E-10, -8.0000000000000013E-14, 1.1409E-10, 1.1215000000000001E-10, 1.1409E-10, 8.0000000000000013E-14
DataValue, -2.2415, 1, -1.0826000000000001E-10, 1E-13, 1.0999000000000001E-10, 1.0826000000000001E-10, 1.0999000000000001E-10, 1E-13
DataValue, -2.23225, 1, -1.0600000000000001E-10, -6.6E-13, 1.0577000000000001E-10, 1.0600000000000001E-10, 1.0577000000000001E-10, 6.6E-13
DataValue, -2.223, 1, -1.0234E-10, 9.3E-13, 1.0297000000000001E-10, 1.0234E-10, 1.0297000000000001E-10, 9.3E-13
DataValue, -2.21375, 1, -1.0066E-10, -7E-14, 9.948E-11, 1.0066E-10, 9.948E-11, 7E-14
DataValue, -2.2045, 1, -9.8820000000000014E-11, 9.6000000000000015E-13, 9.7830000000000013E-11, 9.8820000000000014E-11, 9.7830000000000013E-11, 9.6000000000000015E-13
DataValue, -2.1955, 1, -9.608E-11, 4.8000000000000008E-13, 9.542E-11, 9.608E-11, 9.542E-11, 4.8000000000000008E-13
DataValue, -2.1862500000000002, 1, -9.369E-11, 8.2E-13, 9.277E-11, 9.369E-11, 9.277E-11, 8.2E-13
DataValue, -2.177, 1, -9.054E-11, 1.7E-13, 9.0150000000000007E-11, 9.054E-11, 9.0150000000000007E-11, 1.7E-13
DataValue, -2.16775, 1, -8.826E-11, -2.2000000000000002E-13, 8.627E-11, 8.826E-11, 8.627E-11, 2.2000000000000002E-13
DataValue, -2.1585, 1, -8.503E-11, -3.9000000000000005E-13, 8.349E-11, 8.503E-11, 8.349E-11, 3.9000000000000005E-13
DataValue, -2.14925, 1, -8.269E-11, -1.17E-12, 8.086E-11, 8.269E-11, 8.086E-11, 1.17E-12
DataValue, -2.14, 1, -7.979E-11, -7.9000000000000007E-13, 7.8530000000000012E-11, 7.979E-11, 7.8530000000000012E-11, 7.9000000000000007E-13
DataValue, -2.13075, 1, -7.704E-11, -9.9E-13, 7.382000000000001E-11, 7.704E-11, 7.382000000000001E-11, 9.9E-13
DataValue, -2.1215, 1, -7.358E-11, -2.8E-13, 7.1390000000000011E-11, 7.358E-11, 7.1390000000000011E-11, 2.8E-13
DataValue, -2.11225, 1, -7.136E-11, -1E-13, 6.816E-11, 7.136E-11, 6.816E-11, 1E-13
DataValue, -2.103, 1, -6.755E-11, -6.0000000000000009E-14, 6.5940000000000007E-11, 6.755E-11, 6.5940000000000007E-11, 6.0000000000000009E-14
DataValue, -2.09375, 1, -6.628E-11, 4.8000000000000008E-13, 6.5550000000000009E-11, 6.628E-11, 6.5550000000000009E-11, 4.8000000000000008E-13
DataValue, -2.0845000000000002, 1, -6.3180000000000008E-11, 1.36E-12, 6.047E-11, 6.3180000000000008E-11, 6.047E-11, 1.36E-12
DataValue, -2.0755, 1, -6.013E-11, 6.3E-13, 6.1280000000000007E-11, 6.013E-11, 6.1280000000000007E-11, 6.3E-13
DataValue, -2.06625, 1, -5.882000000000001E-11, 2.4000000000000004E-13, 5.776E-11, 5.882000000000001E-11, 5.776E-11, 2.4000000000000004E-13
DataValue, -2.057, 1, -5.5560000000000006E-11, 1.8000000000000002E-13, 5.7530000000000007E-11, 5.5560000000000006E-11, 5.7530000000000007E-11, 1.8000000000000002E-13
DataValue, -2.04775, 1, -5.3560000000000007E-11, 9.0000000000000008E-14, 5.6510000000000007E-11, 5.3560000000000007E-11, 5.6510000000000007E-11, 9.0000000000000008E-14
DataValue, -2.0385, 1, -5.16E-11, 2.3000000000000003E-13, 5.441E-11, 5.16E-11, 5.441E-11, 2.3000000000000003E-13
DataValue, -2.02925, 1, -4.9280000000000003E-11, 4E-13, 5.1360000000000004E-11, 4.9280000000000003E-11, 5.1360000000000004E-11, 4E-13
DataValue, -2.02, 1, -4.8420000000000006E-11, 4.8000000000000008E-13, 4.9770000000000006E-11, 4.8420000000000006E-11, 4.9770000000000006E-11, 4.8000000000000008E-13
DataValue, -2.0107500000000003, 1, -4.5180000000000006E-11, 1.1000000000000002E-12, 4.7990000000000007E-11, 4.5180000000000006E-11, 4.7990000000000007E-11, 1.1000000000000002E-12
DataValue, -2.0015, 1, -4.4410000000000005E-11, -5E-13, 4.701E-11, 4.4410000000000005E-11, 4.701E-11, 5E-13
DataValue, -1.99225, 1, -4.2300000000000005E-11, -8.8000000000000009E-13, 4.5610000000000005E-11, 4.2300000000000005E-11, 4.5610000000000005E-11, 8.8000000000000009E-13
DataValue, -1.983, 1, -4.0550000000000005E-11, -7.2000000000000006E-13, 4.432E-11, 4.0550000000000005E-11, 4.432E-11, 7.2000000000000006E-13
DataValue, -1.9737500000000001, 1, -4.0070000000000004E-11, -5E-14, 4.1570000000000005E-11, 4.0070000000000004E-11, 4.1570000000000005E-11, 5E-14
DataValue, -1.9645000000000001, 1, -3.868E-11, -1.21E-12, 3.984E-11, 3.868E-11, 3.984E-11, 1.21E-12
DataValue, -1.9555, 1, -3.7490000000000004E-11, -5E-13, 3.992E-11, 3.7490000000000004E-11, 3.992E-11, 5E-13
DataValue, -1.94625, 1, -3.602E-11, -9.000000000000001E-13, 3.744E-11, 3.602E-11, 3.744E-11, 9.000000000000001E-13
DataValue, -1.937, 1, -3.477E-11, -7.6000000000000009E-13, 3.597E-11, 3.477E-11, 3.597E-11, 7.6000000000000009E-13
DataValue, -1.92775, 1, -3.427E-11, -1E-13, 3.5560000000000004E-11, 3.427E-11, 3.5560000000000004E-11, 1E-13
DataValue, -1.9185, 1, -3.322E-11, 3.5E-13, 3.4220000000000006E-11, 3.322E-11, 3.4220000000000006E-11, 3.5E-13
DataValue, -1.9092500000000001, 1, -3.256E-11, 3.9000000000000005E-13, 3.191E-11, 3.256E-11, 3.191E-11, 3.9000000000000005E-13
DataValue, -1.9000000000000001, 1, -3.22E-11, 6.3E-13, 3.2140000000000005E-11, 3.22E-11, 3.2140000000000005E-11, 6.3E-13
DataValue, -1.89075, 1, -3.173E-11, 1.04E-12, 3.1270000000000005E-11, 3.173E-11, 3.1270000000000005E-11, 1.04E-12
DataValue, -1.8815, 1, -3.16E-11, 4.7E-13, 3.2250000000000005E-11, 3.16E-11, 3.2250000000000005E-11, 4.7E-13
DataValue, -1.87225, 1, -3.0420000000000003E-11, 7.100000000000001E-13, 3.1660000000000004E-11, 3.0420000000000003E-11, 3.1660000000000004E-11, 7.100000000000001E-13
DataValue, -1.863, 1, -2.95E-11, 6.0000000000000009E-14, 2.8630000000000002E-11, 2.95E-11, 2.8630000000000002E-11, 6.0000000000000009E-14
DataValue, -1.85375, 1, -2.899E-11, -2.3000000000000003E-13, 2.8780000000000003E-11, 2.899E-11, 2.8780000000000003E-11, 2.3000000000000003E-13
DataValue, -1.8445, 1, -2.837E-11, -3.3E-13, 2.768E-11, 2.837E-11, 2.768E-11, 3.3E-13
DataValue, -1.8355000000000001, 1, -2.918E-11, -1.1000000000000002E-12, 2.6430000000000003E-11, 2.918E-11, 2.6430000000000003E-11, 1.1000000000000002E-12
DataValue, -1.82625, 1, -2.7630000000000002E-11, -2.6E-13, 2.651E-11, 2.7630000000000002E-11, 2.651E-11, 2.6E-13
DataValue, -1.817, 1, -2.6540000000000003E-11, -7E-13, 2.569E-11, 2.6540000000000003E-11, 2.569E-11, 7E-13
DataValue, -1.80775, 1, -2.5680000000000002E-11, -1.04E-12, 2.3190000000000003E-11, 2.5680000000000002E-11, 2.3190000000000003E-11, 1.04E-12
DataValue, -1.7985, 1, -2.4740000000000003E-11, 8.0000000000000013E-14, 2.2130000000000002E-11, 2.4740000000000003E-11, 2.2130000000000002E-11, 8.0000000000000013E-14
DataValue, -1.78925, 1, -2.407E-11, -1.2000000000000002E-13, 2.143E-11, 2.407E-11, 2.143E-11, 1.2000000000000002E-13
DataValue, -1.78, 1, -2.24E-11, -7E-14, 1.724E-11, 2.24E-11, 1.724E-11, 7E-14
DataValue, -1.77075, 1, -2.1090000000000002E-11, -1.3E-13, 1.9040000000000003E-11, 2.1090000000000002E-11, 1.9040000000000003E-11, 1.3E-13
DataValue, -1.7615, 1, -1.9620000000000002E-11, 3.7000000000000004E-13, 1.6910000000000003E-11, 1.9620000000000002E-11, 1.6910000000000003E-11, 3.7000000000000004E-13
DataValue, -1.75225, 1, -1.85E-11, 5.5000000000000008E-13, 1.817E-11, 1.85E-11, 1.817E-11, 5.5000000000000008E-13
DataValue, -1.743, 1, -1.8530000000000003E-11, 6.7000000000000007E-13, 1.828E-11, 1.8530000000000003E-11, 1.828E-11, 6.7000000000000007E-13
DataValue, -1.7337500000000001, 1, -1.6580000000000002E-11, 1.78E-12, 1.7980000000000002E-11, 1.6580000000000002E-11, 1.7980000000000002E-11, 1.78E-12
DataValue, -1.7245000000000001, 1, -1.519E-11, 2.9000000000000003E-13, 1.832E-11, 1.519E-11, 1.832E-11, 2.9000000000000003E-13
DataValue, -1.7155, 1, -1.46E-11, 1.2000000000000002E-13, 1.659E-11, 1.46E-11, 1.659E-11, 1.2000000000000002E-13
DataValue, -1.70625, 1, -1.423E-11, -5.6E-13, 1.6160000000000002E-11, 1.423E-11, 1.6160000000000002E-11, 5.6E-13
DataValue, -1.697, 1, -1.3030000000000001E-11, -6.7000000000000007E-13, 1.595E-11, 1.3030000000000001E-11, 1.595E-11, 6.7000000000000007E-13
DataValue, -1.68775, 1, -1.2330000000000001E-11, -5.3000000000000006E-13, 1.591E-11, 1.2330000000000001E-11, 1.591E-11, 5.3000000000000006E-13
DataValue, -1.6785, 1, -1.2840000000000001E-11, -3.6000000000000003E-13, 1.4720000000000002E-11, 1.2840000000000001E-11, 1.4720000000000002E-11, 3.6000000000000003E-13
DataValue, -1.6692500000000001, 1, -1.16E-11, 2.0000000000000003E-14, 1.3680000000000002E-11, 1.16E-11, 1.3680000000000002E-11, 2.0000000000000003E-14
DataValue, -1.6600000000000001, 1, -1.0700000000000001E-11, 1.3E-13, 1.4250000000000001E-11, 1.0700000000000001E-11, 1.4250000000000001E-11, 1.3E-13
DataValue, -1.65075, 1, -1.0110000000000001E-11, -1.13E-12, 1.1550000000000002E-11, 1.0110000000000001E-11, 1.1550000000000002E-11, 1.13E-12
DataValue, -1.6415, 1, -9.94E-12, -5.8000000000000005E-13, 1.2860000000000001E-11, 9.94E-12, 1.2860000000000001E-11, 5.8000000000000005E-13
DataValue, -1.63225, 1, -9.85E-12, -7.9000000000000007E-13, 1.1020000000000001E-11, 9.85E-12, 1.1020000000000001E-11, 7.9000000000000007E-13
DataValue, -1.623, 1, -9.3800000000000008E-12, -4.2000000000000003E-13, 8.21E-12, 9.3800000000000008E-12, 8.21E-12, 4.2000000000000003E-13
DataValue, -1.61375, 1, -9.6100000000000013E-12, 8.0000000000000013E-14, 1.007E-11, 9.6100000000000013E-12, 1.007E-11, 8.0000000000000013E-14
DataValue, -1.6045, 1, -9.45E-12, -5.7E-13, 9.06E-12, 9.45E-12, 9.06E-12, 5.7E-13
DataValue, -1.5955000000000001, 1, -8.9000000000000013E-12, 3.5E-13, 9.03E-12, 8.9000000000000013E-12, 9.03E-12, 3.5E-13
DataValue, -1.58625, 1, -9.3800000000000008E-12, 6.7000000000000007E-13, 9.56E-12, 9.3800000000000008E-12, 9.56E-12, 6.7000000000000007E-13
DataValue, -1.577, 1, -9.390000000000001E-12, 4.8000000000000008E-13, 9.75E-12, 9.390000000000001E-12, 9.75E-12, 4.8000000000000008E-13
DataValue, -1.56775, 1, -9.2100000000000013E-12, 1.18E-12, 1.076E-11, 9.2100000000000013E-12, 1.076E-11, 1.18E-12
DataValue, -1.5585, 1, -1.0510000000000001E-11, 1.41E-12, 8.25E-12, 1.0510000000000001E-11, 8.25E-12, 1.41E-12
