
SetupTitle, Vd=1V(-2.5,3.5)
PrimitiveTest, I/V Sweep
TestParameter, Context.MainFrame, B1500A
TestParameter, Channel.UnitType, SMU, SMU, SMU
TestParameter, Channel.Unit, SMU1:HR, SMU2:HR, SMU3:HR
TestParameter, Channel.IName, Ig, Is, Id
TestParameter, Channel.VName, Vg, Vs, Vd
TestParameter, Channel.Mode, V, V, V
TestParameter, Channel.Func, VAR1, CONST, CONST
TestParameter, Channel.Index, 
TestParameter, Channel.Time, 
TestParameter, Measurement.Port.Unit, SMU1:HR, SMU2:HR, SMU3:HR
TestParameter, Measurement.Port.SeriesResistor, NONE, NONE, NONE
TestParameter, Measurement.Port.Filter, ON, ON, ON
TestParameter, Measurement.Port.OutputVoltageComparison, 0, 0, 0
TestParameter, Measurement.Primary.Locus, Double
TestParameter, Measurement.Primary.Scale, LINEAR
TestParameter, Measurement.Primary.Start, -2.5
TestParameter, Measurement.Primary.Stop, 3.5
TestParameter, Measurement.Primary.Step, 0.00925
TestParameter, Measurement.Primary.Compliance, 0.1
TestParameter, Measurement.Primary.PowerCompliance, 0
TestParameter, Measurement.Aborting.Condition, CONTINUE AT ANY
TestParameter, Measurement.PostOutput.Value, START
TestParameter, Measurement.PostOutput.Retention, OFF
TestParameter, Measurement.Bias.Source, -2.5, 0, 1
TestParameter, Measurement.Bias.Compliance, 0.1, 0.1, 0.1
TestParameter, Measurement.Monitor.Unit, SMU1:HR, SMU2:HR, SMU3:HR
TestParameter, Measurement.Monitor.Adc, HR ADC, HR ADC, HR ADC
TestParameter, Measurement.Monitor.Measurement, Compliance Side, Compliance Side, Compliance Side
TestParameter, Measurement.Monitor.RangingMode, LIMITED, LIMITED, LIMITED
TestParameter, Measurement.Monitor.RangeBoundary, 1nA, 1nA, 1nA
TestParameter, Measurement.Monitor.RangeRating, BY FULL RANGE, BY FULL RANGE, BY FULL RANGE
TestParameter, Measurement.Monitor.RangeRatingCoeff, 50, 50, 50
TestParameter, Measurement.Timing.Hold, 0
TestParameter, Measurement.Timing.Delay, 0
TestParameter, Measurement.Adc.HighSpeed.Mode, AUTO
TestParameter, Measurement.Adc.HighSpeed.Coeff, 1
TestParameter, Measurement.Adc.HighResolution.AutoZero, OFF
TestParameter, Measurement.Adc.HighResolution.Mode, AUTO
TestParameter, Measurement.Adc.HighResolution.Coeff, 3
TestParameter, Measurement.WaitTime.Source.Coeff, 1
TestParameter, Measurement.WaitTime.Source.Offset, 0
TestParameter, Measurement.WaitTime.Monitor.Coeff, 1
TestParameter, Measurement.WaitTime.Monitor.Offset, 0
TestParameter, Function.User.Name, absIg, absId, absIs
TestParameter, Function.User.Unit, A, A, A
TestParameter, Function.User.Definition, abs(Ig), abs(Id), abs(Is)
TestParameter, Output.Graph.Enabled, true
TestParameter, Output.Graph.AutoScaling, false
TestParameter, Output.Graph.XAxis.Data, Vg
TestParameter, Output.Graph.XAxis.Scale, Linear
TestParameter, Output.Graph.XAxis.Left, -2.5
TestParameter, Output.Graph.XAxis.Right, 3.5
TestParameter, Output.Graph.XAxis.RunTimeAutoScale, true
TestParameter, Output.Graph.YAxis.Data, absIg, absId, absIs
TestParameter, Output.Graph.YAxis.Scale, Log, Log, Log
TestParameter, Output.Graph.YAxis.Bottom, 0, 0, 0
TestParameter, Output.Graph.YAxis.Top, 1, 1, 1
TestParameter, Output.Graph.YAxis.Group, Group 1, Group 1, Group 1
TestParameter, Output.Graph.YAxis.RunTimeAutoScale, true, true, true
TestParameter, Output.List.Data, Vg, Vd, Ig, Id, Is, absIg, absId, absIs
TestParameter, AutoAnalysis.Interpolation, false
TestParameter, AutoAnalysis.Var2StepCount, 1
TestParameter, AutoAnalysis.Var2StepScript, 
TestParameter, AutoAnalysis.Line1.Enabled, false
TestParameter, AutoAnalysis.Line1.Type, 1
TestParameter, AutoAnalysis.Line1.Fix, True
TestParameter, AutoAnalysis.Line1.YAxis, 0
TestParameter, AutoAnalysis.Line1.Point1.Type, 0
TestParameter, AutoAnalysis.Line1.Point1.XY.X, 
TestParameter, AutoAnalysis.Line1.Point1.XY.Y, 
TestParameter, AutoAnalysis.Line1.Point1.Data.Var, 
TestParameter, AutoAnalysis.Line1.Point1.Data.Condition, 
TestParameter, AutoAnalysis.Line1.Point1.Data.Start, false
TestParameter, AutoAnalysis.Line1.Point1.Data.StartVar, 
TestParameter, AutoAnalysis.Line1.Point1.Data.StartCondition, 
TestParameter, AutoAnalysis.Line1.Point2.Type, 0
TestParameter, AutoAnalysis.Line1.Point2.XY.X, 
TestParameter, AutoAnalysis.Line1.Point2.XY.Y, 
TestParameter, AutoAnalysis.Line1.Point2.Data.Var, 
TestParameter, AutoAnalysis.Line1.Point2.Data.Condition, 
TestParameter, AutoAnalysis.Line1.Point2.Data.Start, false
TestParameter, AutoAnalysis.Line1.Point2.Data.StartVar, 
TestParameter, AutoAnalysis.Line1.Point2.Data.StartCondition, 
TestParameter, AutoAnalysis.Line1.GradientExpr, 0
TestParameter, AutoAnalysis.Line2.Enabled, false
TestParameter, AutoAnalysis.Line2.Type, 1
TestParameter, AutoAnalysis.Line2.Fix, True
TestParameter, AutoAnalysis.Line2.YAxis, 0
TestParameter, AutoAnalysis.Line2.Point1.Type, 0
TestParameter, AutoAnalysis.Line2.Point1.XY.X, 
TestParameter, AutoAnalysis.Line2.Point1.XY.Y, 
TestParameter, AutoAnalysis.Line2.Point1.Data.Var, 
TestParameter, AutoAnalysis.Line2.Point1.Data.Condition, 
TestParameter, AutoAnalysis.Line2.Point1.Data.Start, false
TestParameter, AutoAnalysis.Line2.Point1.Data.StartVar, 
TestParameter, AutoAnalysis.Line2.Point1.Data.StartCondition, 
TestParameter, AutoAnalysis.Line2.Point2.Type, 0
TestParameter, AutoAnalysis.Line2.Point2.XY.X, 
TestParameter, AutoAnalysis.Line2.Point2.XY.Y, 
TestParameter, AutoAnalysis.Line2.Point2.Data.Var, 
TestParameter, AutoAnalysis.Line2.Point2.Data.Condition, 
TestParameter, AutoAnalysis.Line2.Point2.Data.Start, false
TestParameter, AutoAnalysis.Line2.Point2.Data.StartVar, 
TestParameter, AutoAnalysis.Line2.Point2.Data.StartCondition, 
TestParameter, AutoAnalysis.Line2.GradientExpr, 0
TestParameter, AutoAnalysis.Marker.Enabled, false
TestParameter, AutoAnalysis.Marker.Data.Var, 
TestParameter, AutoAnalysis.Marker.Data.Condition, 
TestParameter, AutoAnalysis.Marker.Data.Start, false
TestParameter, AutoAnalysis.Marker.Data.StartVar, 
TestParameter, AutoAnalysis.Marker.Data.StartCondition, 
MetaData, TestRecord.EntryPoint, true
MetaData, TestRecord.RecordTime, 04/07/2025 16:46:35
MetaData, TestRecord.TestTarget, BGAF 3_1 206 W64-L5
MetaData, TestRecord.IterationIndex, 31
MetaData, TestRecord.Preservation, true
MetaData, TestRecord.Flag, 
MetaData, TestRecord.Remarks, 
MetaData, TestRecord.LinkKey, 6a0a1c0a-b1d2-4136-9027-9742be965013
MetaData, TestRecord.Parameters, 
Dimension1, 1302, 1302, 1302, 1302, 1302, 1302, 1302, 1302
Dimension2, 1, 1, 1, 1, 1, 1, 1, 1
DataName, Vg, Vd, Ig, Is, Id, absIg, absId, absIs
DataValue, -2.5, 1, -2.0226E-10, 1.2900000000000002E-12, 2.1391000000000001E-10, 2.0226E-10, 2.1391000000000001E-10, 1.2900000000000002E-12
DataValue, -2.4907500000000002, 1, -2.0780000000000002E-10, 9.0000000000000008E-14, 2.0951E-10, 2.0780000000000002E-10, 2.0951E-10, 9.0000000000000008E-14
DataValue, -2.4815, 1, -2.0230000000000002E-10, 7.3E-13, 2.0104E-10, 2.0230000000000002E-10, 2.0104E-10, 7.3E-13
DataValue, -2.47225, 1, -1.9355000000000002E-10, 7.5E-13, 1.9468000000000002E-10, 1.9355000000000002E-10, 1.9468000000000002E-10, 7.5E-13
DataValue, -2.463, 1, -1.8793000000000002E-10, 7.4000000000000008E-13, 1.8970000000000003E-10, 1.8793000000000002E-10, 1.8970000000000003E-10, 7.4000000000000008E-13
DataValue, -2.45375, 1, -1.8206000000000002E-10, 6.1E-13, 1.8566E-10, 1.8206000000000002E-10, 1.8566E-10, 6.1E-13
DataValue, -2.4445, 1, -1.7661000000000002E-10, -3.4E-13, 1.7896000000000002E-10, 1.7661000000000002E-10, 1.7896000000000002E-10, 3.4E-13
DataValue, -2.4355, 1, -1.7064000000000002E-10, 3.0000000000000005E-14, 1.7371000000000001E-10, 1.7064000000000002E-10, 1.7371000000000001E-10, 3.0000000000000005E-14
DataValue, -2.42625, 1, -1.6548E-10, 2.5E-13, 1.6956E-10, 1.6548E-10, 1.6956E-10, 2.5E-13
DataValue, -2.4170000000000003, 1, -1.6078E-10, -3.3E-13, 1.6406E-10, 1.6078E-10, 1.6406E-10, 3.3E-13
DataValue, -2.40775, 1, -1.5744E-10, -4.1E-13, 1.5903000000000002E-10, 1.5744E-10, 1.5903000000000002E-10, 4.1E-13
DataValue, -2.3985, 1, -1.5239E-10, -1.09E-12, 1.5448000000000002E-10, 1.5239E-10, 1.5448000000000002E-10, 1.09E-12
DataValue, -2.38925, 1, -1.4660000000000002E-10, -2.5E-13, 1.5005000000000001E-10, 1.4660000000000002E-10, 1.5005000000000001E-10, 2.5E-13
DataValue, -2.38, 1, -1.4171000000000002E-10, 8.0000000000000013E-14, 1.4395E-10, 1.4171000000000002E-10, 1.4395E-10, 8.0000000000000013E-14
DataValue, -2.37075, 1, -1.3889E-10, -1.8000000000000002E-13, 1.3876000000000002E-10, 1.3889E-10, 1.3876000000000002E-10, 1.8000000000000002E-13
DataValue, -2.3615, 1, -1.3488E-10, 6.0000000000000009E-14, 1.3526E-10, 1.3488E-10, 1.3526E-10, 6.0000000000000009E-14
DataValue, -2.35225, 1, -1.307E-10, 7.5E-13, 1.3104000000000002E-10, 1.307E-10, 1.3104000000000002E-10, 7.5E-13
DataValue, -2.343, 1, -1.2836E-10, 1.6000000000000003E-13, 1.2767E-10, 1.2836E-10, 1.2767E-10, 1.6000000000000003E-13
DataValue, -2.33375, 1, -1.2514000000000002E-10, 1.27E-12, 1.2310000000000002E-10, 1.2514000000000002E-10, 1.2310000000000002E-10, 1.27E-12
DataValue, -2.3245, 1, -1.2198E-10, 1.5200000000000002E-12, 1.212E-10, 1.2198E-10, 1.212E-10, 1.5200000000000002E-12
DataValue, -2.3155, 1, -1.173E-10, 2.7E-13, 1.1688000000000001E-10, 1.173E-10, 1.1688000000000001E-10, 2.7E-13
DataValue, -2.30625, 1, -1.1430000000000001E-10, -7.5E-13, 1.1371000000000001E-10, 1.1430000000000001E-10, 1.1371000000000001E-10, 7.5E-13
DataValue, -2.297, 1, -1.1197000000000002E-10, 3.5E-13, 1.0888E-10, 1.1197000000000002E-10, 1.0888E-10, 3.5E-13
DataValue, -2.28775, 1, -1.0810000000000001E-10, -1.9200000000000003E-12, 1.0616000000000001E-10, 1.0810000000000001E-10, 1.0616000000000001E-10, 1.9200000000000003E-12
DataValue, -2.2785, 1, -1.0416E-10, 2.9000000000000003E-13, 1.0369E-10, 1.0416E-10, 1.0369E-10, 2.9000000000000003E-13
DataValue, -2.26925, 1, -1.0153000000000001E-10, -3.1000000000000004E-13, 9.9100000000000012E-11, 1.0153000000000001E-10, 9.9100000000000012E-11, 3.1000000000000004E-13
DataValue, -2.2600000000000002, 1, -9.7140000000000013E-11, -1.32E-12, 9.483000000000001E-11, 9.7140000000000013E-11, 9.483000000000001E-11, 1.32E-12
DataValue, -2.25075, 1, -9.54E-11, -7.2000000000000006E-13, 9.178E-11, 9.54E-11, 9.178E-11, 7.2000000000000006E-13
DataValue, -2.2415, 1, -9.0910000000000012E-11, 4E-13, 8.8490000000000009E-11, 9.0910000000000012E-11, 8.8490000000000009E-11, 4E-13
DataValue, -2.23225, 1, -8.916E-11, -1.1100000000000001E-12, 8.6290000000000007E-11, 8.916E-11, 8.6290000000000007E-11, 1.1100000000000001E-12
DataValue, -2.223, 1, -8.495E-11, 3.5E-13, 8.3770000000000012E-11, 8.495E-11, 8.3770000000000012E-11, 3.5E-13
DataValue, -2.21375, 1, -8.288E-11, -1E-13, 8.1600000000000008E-11, 8.288E-11, 8.1600000000000008E-11, 1E-13
DataValue, -2.2045, 1, -7.924E-11, 9.3E-13, 7.871E-11, 7.924E-11, 7.871E-11, 9.3E-13
DataValue, -2.1955, 1, -7.6160000000000012E-11, 1.0100000000000001E-12, 7.6300000000000011E-11, 7.6160000000000012E-11, 7.6300000000000011E-11, 1.0100000000000001E-12
DataValue, -2.1862500000000002, 1, -7.337E-11, 8.9E-13, 7.342E-11, 7.337E-11, 7.342E-11, 8.9E-13
DataValue, -2.177, 1, -7.1120000000000009E-11, -2.0000000000000003E-14, 7.21E-11, 7.1120000000000009E-11, 7.21E-11, 2.0000000000000003E-14
DataValue, -2.16775, 1, -6.7810000000000009E-11, 1.5000000000000002E-13, 6.995E-11, 6.7810000000000009E-11, 6.995E-11, 1.5000000000000002E-13
DataValue, -2.1585, 1, -6.5440000000000009E-11, 1.1600000000000001E-12, 6.7590000000000009E-11, 6.5440000000000009E-11, 6.7590000000000009E-11, 1.1600000000000001E-12
DataValue, -2.14925, 1, -6.3320000000000007E-11, -2.7E-13, 6.5940000000000007E-11, 6.3320000000000007E-11, 6.5940000000000007E-11, 2.7E-13
DataValue, -2.14, 1, -6.1110000000000009E-11, 5.8000000000000005E-13, 6.4360000000000011E-11, 6.1110000000000009E-11, 6.4360000000000011E-11, 5.8000000000000005E-13
DataValue, -2.13075, 1, -5.856E-11, 2.7E-13, 6.1140000000000008E-11, 5.856E-11, 6.1140000000000008E-11, 2.7E-13
DataValue, -2.1215, 1, -5.601E-11, -4.4000000000000004E-13, 6.033E-11, 5.601E-11, 6.033E-11, 4.4000000000000004E-13
DataValue, -2.11225, 1, -5.5010000000000006E-11, -5.7E-13, 5.616E-11, 5.5010000000000006E-11, 5.616E-11, 5.7E-13
DataValue, -2.103, 1, -5.3560000000000007E-11, -2.6E-13, 5.601E-11, 5.3560000000000007E-11, 5.601E-11, 2.6E-13
DataValue, -2.09375, 1, -5.2160000000000004E-11, -9.1000000000000016E-13, 5.4160000000000003E-11, 5.2160000000000004E-11, 5.4160000000000003E-11, 9.1000000000000016E-13
DataValue, -2.0845000000000002, 1, -5.0750000000000006E-11, -3.1000000000000004E-13, 5.3000000000000004E-11, 5.0750000000000006E-11, 5.3000000000000004E-11, 3.1000000000000004E-13
DataValue, -2.0755, 1, -4.869E-11, 9.0000000000000008E-14, 5.015E-11, 4.869E-11, 5.015E-11, 9.0000000000000008E-14
DataValue, -2.06625, 1, -4.749E-11, 1.7E-13, 4.931E-11, 4.749E-11, 4.931E-11, 1.7E-13
DataValue, -2.057, 1, -4.5720000000000005E-11, 2.1000000000000001E-13, 4.7540000000000005E-11, 4.5720000000000005E-11, 4.7540000000000005E-11, 2.1000000000000001E-13
DataValue, -2.04775, 1, -4.702E-11, -1.8000000000000002E-13, 4.578E-11, 4.702E-11, 4.578E-11, 1.8000000000000002E-13
DataValue, -2.0385, 1, -4.475E-11, 4.0000000000000006E-14, 4.454E-11, 4.475E-11, 4.454E-11, 4.0000000000000006E-14
DataValue, -2.02925, 1, -4.3750000000000004E-11, 9.8E-13, 4.243E-11, 4.3750000000000004E-11, 4.243E-11, 9.8E-13
DataValue, -2.02, 1, -4.348E-11, 7.5E-13, 4.2290000000000003E-11, 4.348E-11, 4.2290000000000003E-11, 7.5E-13
DataValue, -2.0107500000000003, 1, -4.196E-11, 5.1E-13, 4.2150000000000004E-11, 4.196E-11, 4.2150000000000004E-11, 5.1E-13
DataValue, -2.0015, 1, -4.14E-11, 1.6000000000000003E-13, 3.926E-11, 4.14E-11, 3.926E-11, 1.6000000000000003E-13
DataValue, -1.99225, 1, -3.992E-11, 2.7E-13, 3.623E-11, 3.992E-11, 3.623E-11, 2.7E-13
DataValue, -1.983, 1, -3.9640000000000005E-11, 1.3E-13, 3.634E-11, 3.9640000000000005E-11, 3.634E-11, 1.3E-13
DataValue, -1.9737500000000001, 1, -3.8070000000000004E-11, -1.22E-12, 3.597E-11, 3.8070000000000004E-11, 3.597E-11, 1.22E-12
DataValue, -1.9645000000000001, 1, -3.696E-11, -7.2000000000000006E-13, 3.634E-11, 3.696E-11, 3.634E-11, 7.2000000000000006E-13
DataValue, -1.9555, 1, -3.547E-11, -3.0000000000000003E-13, 3.5410000000000004E-11, 3.547E-11, 3.5410000000000004E-11, 3.0000000000000003E-13
DataValue, -1.94625, 1, -3.4540000000000004E-11, -6.0000000000000007E-13, 3.153E-11, 3.4540000000000004E-11, 3.153E-11, 6.0000000000000007E-13
DataValue, -1.937, 1, -3.2760000000000005E-11, -6.2000000000000008E-13, 3.171E-11, 3.2760000000000005E-11, 3.171E-11, 6.2000000000000008E-13
DataValue, -1.92775, 1, -3.114E-11, -4.6000000000000006E-13, 2.9410000000000005E-11, 3.114E-11, 2.9410000000000005E-11, 4.6000000000000006E-13
DataValue, -1.9185, 1, -3.1010000000000005E-11, -3.6000000000000003E-13, 2.899E-11, 3.1010000000000005E-11, 2.899E-11, 3.6000000000000003E-13
DataValue, -1.9092500000000001, 1, -2.938E-11, 2.3000000000000003E-13, 2.8070000000000003E-11, 2.938E-11, 2.8070000000000003E-11, 2.3000000000000003E-13
DataValue, -1.9000000000000001, 1, -2.8090000000000003E-11, -1.1000000000000001E-13, 2.7540000000000003E-11, 2.8090000000000003E-11, 2.7540000000000003E-11, 1.1000000000000001E-13
DataValue, -1.89075, 1, -2.6940000000000003E-11, 2E-13, 2.664E-11, 2.6940000000000003E-11, 2.664E-11, 2E-13
DataValue, -1.8815, 1, -2.4950000000000002E-11, 6.2000000000000008E-13, 2.613E-11, 2.4950000000000002E-11, 2.613E-11, 6.2000000000000008E-13
DataValue, -1.87225, 1, -2.3640000000000002E-11, 1.23E-12, 2.5060000000000002E-11, 2.3640000000000002E-11, 2.5060000000000002E-11, 1.23E-12
DataValue, -1.863, 1, -2.2240000000000002E-11, 4.0000000000000006E-14, 2.4030000000000003E-11, 2.2240000000000002E-11, 2.4030000000000003E-11, 4.0000000000000006E-14
DataValue, -1.85375, 1, -2.185E-11, 5.4E-13, 2.433E-11, 2.185E-11, 2.433E-11, 5.4E-13
DataValue, -1.8445, 1, -2.1130000000000002E-11, -2.1000000000000001E-13, 2.3460000000000002E-11, 2.1130000000000002E-11, 2.3460000000000002E-11, 2.1000000000000001E-13
DataValue, -1.8355000000000001, 1, -1.996E-11, -2.5E-13, 2.3500000000000003E-11, 1.996E-11, 2.3500000000000003E-11, 2.5E-13
DataValue, -1.82625, 1, -1.852E-11, 2.9000000000000003E-13, 2.15E-11, 1.852E-11, 2.15E-11, 2.9000000000000003E-13
DataValue, -1.817, 1, -1.804E-11, -1.45E-12, 2.025E-11, 1.804E-11, 2.025E-11, 1.45E-12
DataValue, -1.80775, 1, -1.71E-11, -3.1000000000000004E-13, 1.9800000000000002E-11, 1.71E-11, 1.9800000000000002E-11, 3.1000000000000004E-13
DataValue, -1.7985, 1, -1.688E-11, -5.2E-13, 2.008E-11, 1.688E-11, 2.008E-11, 5.2E-13
DataValue, -1.78925, 1, -1.651E-11, -6.5000000000000006E-13, 1.8840000000000003E-11, 1.651E-11, 1.8840000000000003E-11, 6.5000000000000006E-13
DataValue, -1.78, 1, -1.648E-11, -3.7000000000000004E-13, 1.7200000000000003E-11, 1.648E-11, 1.7200000000000003E-11, 3.7000000000000004E-13
DataValue, -1.77075, 1, -1.566E-11, -2.3000000000000003E-13, 1.6710000000000003E-11, 1.566E-11, 1.6710000000000003E-11, 2.3000000000000003E-13
DataValue, -1.7615, 1, -1.673E-11, -4.7E-13, 1.617E-11, 1.673E-11, 1.617E-11, 4.7E-13
DataValue, -1.75225, 1, -1.6690000000000003E-11, 1.12E-12, 1.686E-11, 1.6690000000000003E-11, 1.686E-11, 1.12E-12
DataValue, -1.743, 1, -1.61E-11, 6.1E-13, 1.5050000000000002E-11, 1.61E-11, 1.5050000000000002E-11, 6.1E-13
DataValue, -1.7337500000000001, 1, -1.535E-11, 6.400000000000001E-13, 1.544E-11, 1.535E-11, 1.544E-11, 6.400000000000001E-13
DataValue, -1.7245000000000001, 1, -1.5920000000000002E-11, -7E-14, 1.5630000000000002E-11, 1.5920000000000002E-11, 1.5630000000000002E-11, 7E-14
DataValue, -1.7155, 1, -1.6250000000000002E-11, 3.1000000000000004E-13, 1.3250000000000001E-11, 1.6250000000000002E-11, 1.3250000000000001E-11, 3.1000000000000004E-13
DataValue, -1.70625, 1, -1.5470000000000003E-11, 3.8000000000000005E-13, 1.34E-11, 1.5470000000000003E-11, 1.34E-11, 3.8000000000000005E-13
DataValue, -1.697, 1, -1.555E-11, -1.9000000000000002E-13, 1.321E-11, 1.555E-11, 1.321E-11, 1.9000000000000002E-13
DataValue, -1.68775, 1, -1.508E-11, -5.2E-13, 1.402E-11, 1.508E-11, 1.402E-11, 5.2E-13
DataValue, -1.6785, 1, -1.515E-11, -9.3E-13, 1.4290000000000002E-11, 1.515E-11, 1.4290000000000002E-11, 9.3E-13
DataValue, -1.6692500000000001, 1, -1.497E-11, -4.8000000000000008E-13, 1.466E-11, 1.497E-11, 1.466E-11, 4.8000000000000008E-13
DataValue, -1.6600000000000001, 1, -1.321E-11, -8.9E-13, 1.341E-11, 1.321E-11, 1.341E-11, 8.9E-13
DataValue, -1.65075, 1, -1.3150000000000001E-11, -7.4000000000000008E-13, 1.058E-11, 1.3150000000000001E-11, 1.058E-11, 7.4000000000000008E-13
DataValue, -1.6415, 1, -1.2360000000000002E-11, 1.4E-13, 1.048E-11, 1.2360000000000002E-11, 1.048E-11, 1.4E-13
DataValue, -1.63225, 1, -1.2070000000000002E-11, 3.1000000000000004E-13, 9.64E-12, 1.2070000000000002E-11, 9.64E-12, 3.1000000000000004E-13
DataValue, -1.623, 1, -1.1640000000000001E-11, 5.4E-13, 8.64E-12, 1.1640000000000001E-11, 8.64E-12, 5.4E-13
DataValue, -1.61375, 1, -9.47E-12, 1.3E-13, 8.3000000000000014E-12, 9.47E-12, 8.3000000000000014E-12, 1.3E-13
DataValue, -1.6045, 1, -9.64E-12, -1.4E-13, 7.7800000000000012E-12, 9.64E-12, 7.7800000000000012E-12, 1.4E-13
DataValue, -1.5955000000000001, 1, -8.95E-12, 4.5000000000000005E-13, 9.74E-12, 8.95E-12, 9.74E-12, 4.5000000000000005E-13
DataValue, -1.58625, 1, -7.1900000000000007E-12, 9.2000000000000012E-13, 9.7900000000000009E-12, 7.1900000000000007E-12, 9.7900000000000009E-12, 9.2000000000000012E-13
DataValue, -1.577, 1, -6.4400000000000008E-12, 6.3E-13, 1.014E-11, 6.4400000000000008E-12, 1.014E-11, 6.3E-13
DataValue, -1.56775, 1, -6.2200000000000006E-12, 2.8E-13, 9.37E-12, 6.2200000000000006E-12, 9.37E-12, 2.8E-13
DataValue, -1.5585, 1, -5.59E-12, 5E-13, 8.32E-12, 5.59E-12, 8.32E-12, 5E-13
DataValue, -1.54925, 1, -6.0100000000000004E-12, -4.1E-13, 6.0700000000000006E-12, 6.0100000000000004E-12, 6.0700000000000006E-12, 4.1E-13
