
SetupTitle, Vd=1V(-2.5,3.5)
PrimitiveTest, I/V Sweep
TestParameter, Context.MainFrame, B1500A
TestParameter, Channel.UnitType, SMU, SMU, SMU
TestParameter, Channel.Unit, SMU1:HR, SMU2:HR, SMU3:HR
TestParameter, Channel.IName, Ig, Is, Id
TestParameter, Channel.VName, Vg, Vs, Vd
TestParameter, Channel.Mode, V, V, V
TestParameter, Channel.Func, VAR1, CONST, CONST
TestParameter, Channel.Index, 
TestParameter, Channel.Time, 
TestParameter, Measurement.Port.Unit, SMU1:HR, SMU2:HR, SMU3:HR
TestParameter, Measurement.Port.SeriesResistor, NONE, NONE, NONE
TestParameter, Measurement.Port.Filter, ON, ON, ON
TestParameter, Measurement.Port.OutputVoltageComparison, 0, 0, 0
TestParameter, Measurement.Primary.Locus, Double
TestParameter, Measurement.Primary.Scale, LINEAR
TestParameter, Measurement.Primary.Start, -2.5
TestParameter, Measurement.Primary.Stop, 3.5
TestParameter, Measurement.Primary.Step, 0.00925
TestParameter, Measurement.Primary.Compliance, 0.1
TestParameter, Measurement.Primary.PowerCompliance, 0
TestParameter, Measurement.Aborting.Condition, CONTINUE AT ANY
TestParameter, Measurement.PostOutput.Value, START
TestParameter, Measurement.PostOutput.Retention, OFF
TestParameter, Measurement.Bias.Source, -2.5, 0, 1
TestParameter, Measurement.Bias.Compliance, 0.1, 0.1, 0.1
TestParameter, Measurement.Monitor.Unit, SMU1:HR, SMU2:HR, SMU3:HR
TestParameter, Measurement.Monitor.Adc, HR ADC, HR ADC, HR ADC
TestParameter, Measurement.Monitor.Measurement, Compliance Side, Compliance Side, Compliance Side
TestParameter, Measurement.Monitor.RangingMode, LIMITED, LIMITED, LIMITED
TestParameter, Measurement.Monitor.RangeBoundary, 1nA, 1nA, 1nA
TestParameter, Measurement.Monitor.RangeRating, BY FULL RANGE, BY FULL RANGE, BY FULL RANGE
TestParameter, Measurement.Monitor.RangeRatingCoeff, 50, 50, 50
TestParameter, Measurement.Timing.Hold, 0
TestParameter, Measurement.Timing.Delay, 0
TestParameter, Measurement.Adc.HighSpeed.Mode, AUTO
TestParameter, Measurement.Adc.HighSpeed.Coeff, 1
TestParameter, Measurement.Adc.HighResolution.AutoZero, OFF
TestParameter, Measurement.Adc.HighResolution.Mode, AUTO
TestParameter, Measurement.Adc.HighResolution.Coeff, 3
TestParameter, Measurement.WaitTime.Source.Coeff, 1
TestParameter, Measurement.WaitTime.Source.Offset, 0
TestParameter, Measurement.WaitTime.Monitor.Coeff, 1
TestParameter, Measurement.WaitTime.Monitor.Offset, 0
TestParameter, Function.User.Name, absIg, absId, absIs
TestParameter, Function.User.Unit, A, A, A
TestParameter, Function.User.Definition, abs(Ig), abs(Id), abs(Is)
TestParameter, Output.Graph.Enabled, true
TestParameter, Output.Graph.AutoScaling, false
TestParameter, Output.Graph.XAxis.Data, Vg
TestParameter, Output.Graph.XAxis.Scale, Linear
TestParameter, Output.Graph.XAxis.Left, -2.5
TestParameter, Output.Graph.XAxis.Right, 3.5
TestParameter, Output.Graph.XAxis.RunTimeAutoScale, true
TestParameter, Output.Graph.YAxis.Data, absIg, absId, absIs
TestParameter, Output.Graph.YAxis.Scale, Log, Log, Log
TestParameter, Output.Graph.YAxis.Bottom, 0, 0, 0
TestParameter, Output.Graph.YAxis.Top, 1, 1, 1
TestParameter, Output.Graph.YAxis.Group, Group 1, Group 1, Group 1
TestParameter, Output.Graph.YAxis.RunTimeAutoScale, true, true, true
TestParameter, Output.List.Data, Vg, Vd, Ig, Id, Is, absIg, absId, absIs
TestParameter, AutoAnalysis.Interpolation, false
TestParameter, AutoAnalysis.Var2StepCount, 1
TestParameter, AutoAnalysis.Var2StepScript, 
TestParameter, AutoAnalysis.Line1.Enabled, false
TestParameter, AutoAnalysis.Line1.Type, 1
TestParameter, AutoAnalysis.Line1.Fix, True
TestParameter, AutoAnalysis.Line1.YAxis, 0
TestParameter, AutoAnalysis.Line1.Point1.Type, 0
TestParameter, AutoAnalysis.Line1.Point1.XY.X, 
TestParameter, AutoAnalysis.Line1.Point1.XY.Y, 
TestParameter, AutoAnalysis.Line1.Point1.Data.Var, 
TestParameter, AutoAnalysis.Line1.Point1.Data.Condition, 
TestParameter, AutoAnalysis.Line1.Point1.Data.Start, false
TestParameter, AutoAnalysis.Line1.Point1.Data.StartVar, 
TestParameter, AutoAnalysis.Line1.Point1.Data.StartCondition, 
TestParameter, AutoAnalysis.Line1.Point2.Type, 0
TestParameter, AutoAnalysis.Line1.Point2.XY.X, 
TestParameter, AutoAnalysis.Line1.Point2.XY.Y, 
TestParameter, AutoAnalysis.Line1.Point2.Data.Var, 
TestParameter, AutoAnalysis.Line1.Point2.Data.Condition, 
TestParameter, AutoAnalysis.Line1.Point2.Data.Start, false
TestParameter, AutoAnalysis.Line1.Point2.Data.StartVar, 
TestParameter, AutoAnalysis.Line1.Point2.Data.StartCondition, 
TestParameter, AutoAnalysis.Line1.GradientExpr, 0
TestParameter, AutoAnalysis.Line2.Enabled, false
TestParameter, AutoAnalysis.Line2.Type, 1
TestParameter, AutoAnalysis.Line2.Fix, True
TestParameter, AutoAnalysis.Line2.YAxis, 0
TestParameter, AutoAnalysis.Line2.Point1.Type, 0
TestParameter, AutoAnalysis.Line2.Point1.XY.X, 
TestParameter, AutoAnalysis.Line2.Point1.XY.Y, 
TestParameter, AutoAnalysis.Line2.Point1.Data.Var, 
TestParameter, AutoAnalysis.Line2.Point1.Data.Condition, 
TestParameter, AutoAnalysis.Line2.Point1.Data.Start, false
TestParameter, AutoAnalysis.Line2.Point1.Data.StartVar, 
TestParameter, AutoAnalysis.Line2.Point1.Data.StartCondition, 
TestParameter, AutoAnalysis.Line2.Point2.Type, 0
TestParameter, AutoAnalysis.Line2.Point2.XY.X, 
TestParameter, AutoAnalysis.Line2.Point2.XY.Y, 
TestParameter, AutoAnalysis.Line2.Point2.Data.Var, 
TestParameter, AutoAnalysis.Line2.Point2.Data.Condition, 
TestParameter, AutoAnalysis.Line2.Point2.Data.Start, false
TestParameter, AutoAnalysis.Line2.Point2.Data.StartVar, 
TestParameter, AutoAnalysis.Line2.Point2.Data.StartCondition, 
TestParameter, AutoAnalysis.Line2.GradientExpr, 0
TestParameter, AutoAnalysis.Marker.Enabled, false
TestParameter, AutoAnalysis.Marker.Data.Var, 
TestParameter, AutoAnalysis.Marker.Data.Condition, 
TestParameter, AutoAnalysis.Marker.Data.Start, false
TestParameter, AutoAnalysis.Marker.Data.StartVar, 
TestParameter, AutoAnalysis.Marker.Data.StartCondition, 
MetaData, TestRecord.EntryPoint, true
MetaData, TestRecord.RecordTime, 04/07/2025 16:52:44
MetaData, TestRecord.TestTarget, BGAF 3_1 206 W64-L10
MetaData, TestRecord.IterationIndex, 34
MetaData, TestRecord.Preservation, true
MetaData, TestRecord.Flag, 
MetaData, TestRecord.Remarks, 
MetaData, TestRecord.LinkKey, 1fa7d331-8e45-4c48-bc01-04e0f7ce85e9
MetaData, TestRecord.Parameters, 
Dimension1, 1302, 1302, 1302, 1302, 1302, 1302, 1302, 1302
Dimension2, 1, 1, 1, 1, 1, 1, 1, 1
DataName, Vg, Vd, Ig, Is, Id, absIg, absId, absIs
DataValue, -2.5, 1, -1.9293000000000003E-10, 1.4E-13, 2.0203000000000003E-10, 1.9293000000000003E-10, 2.0203000000000003E-10, 1.4E-13
DataValue, -2.4907500000000002, 1, -1.9207000000000002E-10, -3.0000000000000005E-14, 1.9579E-10, 1.9207000000000002E-10, 1.9579E-10, 3.0000000000000005E-14
DataValue, -2.4815, 1, -1.8623E-10, 3.5E-13, 1.8680000000000002E-10, 1.8623E-10, 1.8680000000000002E-10, 3.5E-13
DataValue, -2.47225, 1, -1.8159000000000002E-10, -7.7000000000000005E-13, 1.8334E-10, 1.8159000000000002E-10, 1.8334E-10, 7.7000000000000005E-13
DataValue, -2.463, 1, -1.7586000000000003E-10, 1.0000000000000002E-14, 1.7924000000000002E-10, 1.7586000000000003E-10, 1.7924000000000002E-10, 1.0000000000000002E-14
DataValue, -2.45375, 1, -1.7034E-10, 7.9000000000000007E-13, 1.7230000000000002E-10, 1.7034E-10, 1.7230000000000002E-10, 7.9000000000000007E-13
DataValue, -2.4445, 1, -1.6411000000000002E-10, -1.1000000000000001E-13, 1.6694000000000002E-10, 1.6411000000000002E-10, 1.6694000000000002E-10, 1.1000000000000001E-13
DataValue, -2.4355, 1, -1.6045000000000003E-10, 9.3E-13, 1.615E-10, 1.6045000000000003E-10, 1.615E-10, 9.3E-13
DataValue, -2.42625, 1, -1.5715000000000002E-10, -2.3000000000000003E-13, 1.5782E-10, 1.5715000000000002E-10, 1.5782E-10, 2.3000000000000003E-13
DataValue, -2.4170000000000003, 1, -1.5287E-10, 6.7000000000000007E-13, 1.5291000000000002E-10, 1.5287E-10, 1.5291000000000002E-10, 6.7000000000000007E-13
DataValue, -2.40775, 1, -1.481E-10, 1.4200000000000002E-12, 1.4868000000000002E-10, 1.481E-10, 1.4868000000000002E-10, 1.4200000000000002E-12
DataValue, -2.3985, 1, -1.4514E-10, 1.3400000000000002E-12, 1.4315000000000002E-10, 1.4514E-10, 1.4315000000000002E-10, 1.3400000000000002E-12
DataValue, -2.38925, 1, -1.3943E-10, 9.6000000000000015E-13, 1.3947E-10, 1.3943E-10, 1.3947E-10, 9.6000000000000015E-13
DataValue, -2.38, 1, -1.3702E-10, -2.8E-13, 1.3638E-10, 1.3702E-10, 1.3638E-10, 2.8E-13
DataValue, -2.37075, 1, -1.3325E-10, 2.7E-13, 1.3424000000000002E-10, 1.3325E-10, 1.3424000000000002E-10, 2.7E-13
DataValue, -2.3615, 1, -1.2954E-10, 5.9E-13, 1.2899E-10, 1.2954E-10, 1.2899E-10, 5.9E-13
DataValue, -2.35225, 1, -1.2478E-10, -1.0100000000000001E-12, 1.2208E-10, 1.2478E-10, 1.2208E-10, 1.0100000000000001E-12
DataValue, -2.343, 1, -1.213E-10, -3.9000000000000005E-13, 1.1938E-10, 1.213E-10, 1.1938E-10, 3.9000000000000005E-13
DataValue, -2.33375, 1, -1.1692000000000002E-10, 2.8E-13, 1.1618E-10, 1.1692000000000002E-10, 1.1618E-10, 2.8E-13
DataValue, -2.3245, 1, -1.1351E-10, -7.2000000000000006E-13, 1.1149000000000001E-10, 1.1351E-10, 1.1149000000000001E-10, 7.2000000000000006E-13
DataValue, -2.3155, 1, -1.0980000000000001E-10, -1.2500000000000001E-12, 1.0835E-10, 1.0980000000000001E-10, 1.0835E-10, 1.2500000000000001E-12
DataValue, -2.30625, 1, -1.0573E-10, -1.04E-12, 1.0347E-10, 1.0573E-10, 1.0347E-10, 1.04E-12
DataValue, -2.297, 1, -1.0224000000000001E-10, -7E-14, 1.0033E-10, 1.0224000000000001E-10, 1.0033E-10, 7E-14
DataValue, -2.28775, 1, -9.862E-11, -2.8E-13, 9.6850000000000007E-11, 9.862E-11, 9.6850000000000007E-11, 2.8E-13
DataValue, -2.2785, 1, -9.5680000000000012E-11, 9.0000000000000008E-14, 9.505000000000001E-11, 9.5680000000000012E-11, 9.505000000000001E-11, 9.0000000000000008E-14
DataValue, -2.26925, 1, -9.368E-11, -9.2000000000000012E-13, 9.109E-11, 9.368E-11, 9.109E-11, 9.2000000000000012E-13
DataValue, -2.2600000000000002, 1, -9.068E-11, -1.9000000000000002E-13, 8.98E-11, 9.068E-11, 8.98E-11, 1.9000000000000002E-13
DataValue, -2.25075, 1, -8.79E-11, -3.7000000000000004E-13, 8.6860000000000011E-11, 8.79E-11, 8.6860000000000011E-11, 3.7000000000000004E-13
DataValue, -2.2415, 1, -8.509E-11, 7.5E-13, 8.416000000000001E-11, 8.509E-11, 8.416000000000001E-11, 7.5E-13
DataValue, -2.23225, 1, -8.109E-11, 4.3000000000000004E-13, 8.221E-11, 8.109E-11, 8.221E-11, 4.3000000000000004E-13
DataValue, -2.223, 1, -7.952E-11, 3.1000000000000004E-13, 8.053E-11, 7.952E-11, 8.053E-11, 3.1000000000000004E-13
DataValue, -2.21375, 1, -7.5800000000000012E-11, -3.0000000000000005E-14, 7.6710000000000012E-11, 7.5800000000000012E-11, 7.6710000000000012E-11, 3.0000000000000005E-14
DataValue, -2.2045, 1, -7.313000000000001E-11, 1.2500000000000001E-12, 7.461E-11, 7.313000000000001E-11, 7.461E-11, 1.2500000000000001E-12
DataValue, -2.1955, 1, -7.03E-11, -1.1000000000000001E-13, 7.280000000000001E-11, 7.03E-11, 7.280000000000001E-11, 1.1000000000000001E-13
DataValue, -2.1862500000000002, 1, -6.7290000000000008E-11, 1.1000000000000001E-13, 7.028E-11, 6.7290000000000008E-11, 7.028E-11, 1.1000000000000001E-13
DataValue, -2.177, 1, -6.504E-11, -1.1000000000000001E-13, 6.7400000000000008E-11, 6.504E-11, 6.7400000000000008E-11, 1.1000000000000001E-13
DataValue, -2.16775, 1, -6.27E-11, 2.8E-13, 6.5880000000000009E-11, 6.27E-11, 6.5880000000000009E-11, 2.8E-13
DataValue, -2.1585, 1, -6.096E-11, -3.8000000000000005E-13, 6.416E-11, 6.096E-11, 6.416E-11, 3.8000000000000005E-13
DataValue, -2.14925, 1, -5.875E-11, 7.8000000000000011E-13, 6.253E-11, 5.875E-11, 6.253E-11, 7.8000000000000011E-13
DataValue, -2.14, 1, -5.6860000000000004E-11, -9.7000000000000011E-13, 6.0720000000000011E-11, 5.6860000000000004E-11, 6.0720000000000011E-11, 9.7000000000000011E-13
DataValue, -2.13075, 1, -5.5190000000000005E-11, -1.7E-13, 5.747E-11, 5.5190000000000005E-11, 5.747E-11, 1.7E-13
DataValue, -2.1215, 1, -5.291E-11, -1.1900000000000002E-12, 5.55E-11, 5.291E-11, 5.55E-11, 1.1900000000000002E-12
DataValue, -2.11225, 1, -5.1770000000000006E-11, -5.3000000000000006E-13, 5.4390000000000006E-11, 5.1770000000000006E-11, 5.4390000000000006E-11, 5.3000000000000006E-13
DataValue, -2.103, 1, -5.0430000000000007E-11, -3.7000000000000004E-13, 5.2710000000000005E-11, 5.0430000000000007E-11, 5.2710000000000005E-11, 3.7000000000000004E-13
DataValue, -2.09375, 1, -4.844E-11, 4.9E-13, 4.971E-11, 4.844E-11, 4.971E-11, 4.9E-13
DataValue, -2.0845000000000002, 1, -4.815E-11, 5E-13, 4.825E-11, 4.815E-11, 4.825E-11, 5E-13
DataValue, -2.0755, 1, -4.6890000000000006E-11, 3.0000000000000005E-14, 4.7070000000000005E-11, 4.6890000000000006E-11, 4.7070000000000005E-11, 3.0000000000000005E-14
DataValue, -2.06625, 1, -4.5350000000000004E-11, 6.0000000000000009E-14, 4.647E-11, 4.5350000000000004E-11, 4.647E-11, 6.0000000000000009E-14
DataValue, -2.057, 1, -4.4930000000000007E-11, -7E-14, 4.6090000000000006E-11, 4.4930000000000007E-11, 4.6090000000000006E-11, 7E-14
DataValue, -2.04775, 1, -4.3570000000000004E-11, 2.4000000000000004E-13, 4.3250000000000006E-11, 4.3570000000000004E-11, 4.3250000000000006E-11, 2.4000000000000004E-13
DataValue, -2.0385, 1, -4.3180000000000006E-11, 9.5E-13, 3.9720000000000006E-11, 4.3180000000000006E-11, 3.9720000000000006E-11, 9.5E-13
DataValue, -2.02925, 1, -4.144E-11, -7E-14, 3.871E-11, 4.144E-11, 3.871E-11, 7E-14
DataValue, -2.02, 1, -4.078E-11, 4.2000000000000003E-13, 3.897E-11, 4.078E-11, 3.897E-11, 4.2000000000000003E-13
DataValue, -2.0107500000000003, 1, -3.984E-11, 8.5000000000000011E-13, 3.9560000000000003E-11, 3.984E-11, 3.9560000000000003E-11, 8.5000000000000011E-13
DataValue, -2.0015, 1, -3.867E-11, 2.1000000000000001E-13, 3.834E-11, 3.867E-11, 3.834E-11, 2.1000000000000001E-13
DataValue, -1.99225, 1, -3.798E-11, -2.2000000000000002E-13, 3.639E-11, 3.798E-11, 3.639E-11, 2.2000000000000002E-13
DataValue, -1.983, 1, -3.725E-11, -1.1000000000000002E-12, 3.671E-11, 3.725E-11, 3.671E-11, 1.1000000000000002E-12
DataValue, -1.9737500000000001, 1, -3.645E-11, -5.9E-13, 3.517E-11, 3.645E-11, 3.517E-11, 5.9E-13
DataValue, -1.9645000000000001, 1, -3.457E-11, -9.1000000000000016E-13, 3.259E-11, 3.457E-11, 3.259E-11, 9.1000000000000016E-13
DataValue, -1.9555, 1, -3.3340000000000005E-11, 1.8000000000000002E-13, 3.081E-11, 3.3340000000000005E-11, 3.081E-11, 1.8000000000000002E-13
DataValue, -1.94625, 1, -3.222E-11, -7.4000000000000008E-13, 3.0420000000000003E-11, 3.222E-11, 3.0420000000000003E-11, 7.4000000000000008E-13
DataValue, -1.937, 1, -3.077E-11, 4.1E-13, 2.9730000000000004E-11, 3.077E-11, 2.9730000000000004E-11, 4.1E-13
DataValue, -1.92775, 1, -2.8180000000000003E-11, 5E-14, 2.7780000000000003E-11, 2.8180000000000003E-11, 2.7780000000000003E-11, 5E-14
DataValue, -1.9185, 1, -2.7830000000000002E-11, -1.7E-13, 2.7210000000000002E-11, 2.7830000000000002E-11, 2.7210000000000002E-11, 1.7E-13
DataValue, -1.9092500000000001, 1, -2.555E-11, 2.9000000000000003E-13, 2.5250000000000003E-11, 2.555E-11, 2.5250000000000003E-11, 2.9000000000000003E-13
DataValue, -1.9000000000000001, 1, -2.5E-11, 1.4E-13, 2.5390000000000002E-11, 2.5E-11, 2.5390000000000002E-11, 1.4E-13
DataValue, -1.89075, 1, -2.46E-11, 9.7000000000000011E-13, 2.4230000000000003E-11, 2.46E-11, 2.4230000000000003E-11, 9.7000000000000011E-13
DataValue, -1.8815, 1, -2.1950000000000002E-11, 3.1000000000000004E-13, 2.378E-11, 2.1950000000000002E-11, 2.378E-11, 3.1000000000000004E-13
DataValue, -1.87225, 1, -2.1460000000000003E-11, 9.9E-13, 2.3480000000000003E-11, 2.1460000000000003E-11, 2.3480000000000003E-11, 9.9E-13
DataValue, -1.863, 1, -2.074E-11, 5E-13, 2.4040000000000002E-11, 2.074E-11, 2.4040000000000002E-11, 5E-13
DataValue, -1.85375, 1, -1.934E-11, -7.9000000000000007E-13, 2.291E-11, 1.934E-11, 2.291E-11, 7.9000000000000007E-13
DataValue, -1.8445, 1, -1.9460000000000003E-11, 2.5E-13, 2.2240000000000002E-11, 1.9460000000000003E-11, 2.2240000000000002E-11, 2.5E-13
DataValue, -1.8355000000000001, 1, -1.8800000000000002E-11, -1.22E-12, 2.09E-11, 1.8800000000000002E-11, 2.09E-11, 1.22E-12
DataValue, -1.82625, 1, -1.77E-11, -5.7E-13, 2.0550000000000003E-11, 1.77E-11, 2.0550000000000003E-11, 5.7E-13
DataValue, -1.817, 1, -1.737E-11, -1.04E-12, 1.897E-11, 1.737E-11, 1.897E-11, 1.04E-12
DataValue, -1.80775, 1, -1.6560000000000002E-11, -1.1000000000000002E-12, 1.733E-11, 1.6560000000000002E-11, 1.733E-11, 1.1000000000000002E-12
DataValue, -1.7985, 1, -1.6400000000000003E-11, -4.2000000000000003E-13, 1.748E-11, 1.6400000000000003E-11, 1.748E-11, 4.2000000000000003E-13
DataValue, -1.78925, 1, -1.5690000000000003E-11, -2.5E-13, 1.613E-11, 1.5690000000000003E-11, 1.613E-11, 2.5E-13
DataValue, -1.78, 1, -1.498E-11, -7.5E-13, 1.56E-11, 1.498E-11, 1.56E-11, 7.5E-13
DataValue, -1.77075, 1, -1.5210000000000002E-11, -3.8000000000000005E-13, 1.6710000000000003E-11, 1.5210000000000002E-11, 1.6710000000000003E-11, 3.8000000000000005E-13
DataValue, -1.7615, 1, -1.53E-11, 5E-14, 1.252E-11, 1.53E-11, 1.252E-11, 5E-14
DataValue, -1.75225, 1, -1.489E-11, 4.3000000000000004E-13, 1.3490000000000002E-11, 1.489E-11, 1.3490000000000002E-11, 4.3000000000000004E-13
DataValue, -1.743, 1, -1.4050000000000001E-11, 9.0000000000000008E-14, 1.2260000000000002E-11, 1.4050000000000001E-11, 1.2260000000000002E-11, 9.0000000000000008E-14
DataValue, -1.7337500000000001, 1, -1.4310000000000002E-11, 6.8E-13, 1.4650000000000002E-11, 1.4310000000000002E-11, 1.4650000000000002E-11, 6.8E-13
DataValue, -1.7245000000000001, 1, -1.4110000000000002E-11, 9.9E-13, 1.3270000000000001E-11, 1.4110000000000002E-11, 1.3270000000000001E-11, 9.9E-13
DataValue, -1.7155, 1, -1.488E-11, 3.2000000000000005E-13, 1.509E-11, 1.488E-11, 1.509E-11, 3.2000000000000005E-13
DataValue, -1.70625, 1, -1.46E-11, 2.5E-13, 1.4450000000000001E-11, 1.46E-11, 1.4450000000000001E-11, 2.5E-13
DataValue, -1.697, 1, -1.499E-11, 2.2000000000000002E-13, 1.3590000000000002E-11, 1.499E-11, 1.3590000000000002E-11, 2.2000000000000002E-13
DataValue, -1.68775, 1, -1.432E-11, -2.3000000000000003E-13, 1.3550000000000001E-11, 1.432E-11, 1.3550000000000001E-11, 2.3000000000000003E-13
DataValue, -1.6785, 1, -1.4060000000000001E-11, -3.3E-13, 1.1530000000000001E-11, 1.4060000000000001E-11, 1.1530000000000001E-11, 3.3E-13
DataValue, -1.6692500000000001, 1, -1.343E-11, -2.6E-13, 1.271E-11, 1.343E-11, 1.271E-11, 2.6E-13
DataValue, -1.6600000000000001, 1, -1.3570000000000001E-11, -6.1E-13, 1.321E-11, 1.3570000000000001E-11, 1.321E-11, 6.1E-13
DataValue, -1.65075, 1, -1.2470000000000002E-11, -4.4000000000000004E-13, 9.74E-12, 1.2470000000000002E-11, 9.74E-12, 4.4000000000000004E-13
DataValue, -1.6415, 1, -1.2160000000000002E-11, -7.6000000000000009E-13, 9.0100000000000014E-12, 1.2160000000000002E-11, 9.0100000000000014E-12, 7.6000000000000009E-13
DataValue, -1.63225, 1, -1.1830000000000001E-11, -5.7E-13, 8.44E-12, 1.1830000000000001E-11, 8.44E-12, 5.7E-13
DataValue, -1.623, 1, -1.097E-11, -5.8000000000000005E-13, 8.32E-12, 1.097E-11, 8.32E-12, 5.8000000000000005E-13
DataValue, -1.61375, 1, -9.68E-12, 8.0000000000000013E-14, 8.33E-12, 9.68E-12, 8.33E-12, 8.0000000000000013E-14
DataValue, -1.6045, 1, -8.63E-12, 1.8000000000000002E-13, 8.33E-12, 8.63E-12, 8.33E-12, 1.8000000000000002E-13
DataValue, -1.5955000000000001, 1, -8.35E-12, 5E-13, 9.23E-12, 8.35E-12, 9.23E-12, 5E-13
DataValue, -1.58625, 1, -7.870000000000001E-12, 1.1600000000000001E-12, 8.680000000000001E-12, 7.870000000000001E-12, 8.680000000000001E-12, 1.1600000000000001E-12
DataValue, -1.577, 1, -7.35E-12, 1.1000000000000001E-13, 8.680000000000001E-12, 7.35E-12, 8.680000000000001E-12, 1.1000000000000001E-13
DataValue, -1.56775, 1, -5.18E-12, 8.0000000000000013E-14, 8.87E-12, 5.18E-12, 8.87E-12, 8.0000000000000013E-14
DataValue, -1.5585, 1, -5.4200000000000007E-12, -7E-14, 7.4700000000000011E-12, 5.4200000000000007E-12, 7.4700000000000011E-12, 7E-14
