
SetupTitle, Vd=1V(-2.5,3.5)
PrimitiveTest, I/V Sweep
TestParameter, Context.MainFrame, B1500A
TestParameter, Channel.UnitType, SMU, SMU, SMU
TestParameter, Channel.Unit, SMU1:HR, SMU2:HR, SMU3:HR
TestParameter, Channel.IName, Ig, Is, Id
TestParameter, Channel.VName, Vg, Vs, Vd
TestParameter, Channel.Mode, V, V, V
TestParameter, Channel.Func, VAR1, CONST, CONST
TestParameter, Channel.Index, 
TestParameter, Channel.Time, 
TestParameter, Measurement.Port.Unit, SMU1:HR, SMU2:HR, SMU3:HR
TestParameter, Measurement.Port.SeriesResistor, NONE, NONE, NONE
TestParameter, Measurement.Port.Filter, ON, ON, ON
TestParameter, Measurement.Port.OutputVoltageComparison, 0, 0, 0
TestParameter, Measurement.Primary.Locus, Double
TestParameter, Measurement.Primary.Scale, LINEAR
TestParameter, Measurement.Primary.Start, -2.5
TestParameter, Measurement.Primary.Stop, 3.5
TestParameter, Measurement.Primary.Step, 0.00925
TestParameter, Measurement.Primary.Compliance, 0.1
TestParameter, Measurement.Primary.PowerCompliance, 0
TestParameter, Measurement.Aborting.Condition, CONTINUE AT ANY
TestParameter, Measurement.PostOutput.Value, START
TestParameter, Measurement.PostOutput.Retention, OFF
TestParameter, Measurement.Bias.Source, -2.5, 0, 1
TestParameter, Measurement.Bias.Compliance, 0.1, 0.1, 0.1
TestParameter, Measurement.Monitor.Unit, SMU1:HR, SMU2:HR, SMU3:HR
TestParameter, Measurement.Monitor.Adc, HR ADC, HR ADC, HR ADC
TestParameter, Measurement.Monitor.Measurement, Compliance Side, Compliance Side, Compliance Side
TestParameter, Measurement.Monitor.RangingMode, LIMITED, LIMITED, LIMITED
TestParameter, Measurement.Monitor.RangeBoundary, 1nA, 1nA, 1nA
TestParameter, Measurement.Monitor.RangeRating, BY FULL RANGE, BY FULL RANGE, BY FULL RANGE
TestParameter, Measurement.Monitor.RangeRatingCoeff, 50, 50, 50
TestParameter, Measurement.Timing.Hold, 0
TestParameter, Measurement.Timing.Delay, 0
TestParameter, Measurement.Adc.HighSpeed.Mode, AUTO
TestParameter, Measurement.Adc.HighSpeed.Coeff, 1
TestParameter, Measurement.Adc.HighResolution.AutoZero, OFF
TestParameter, Measurement.Adc.HighResolution.Mode, AUTO
TestParameter, Measurement.Adc.HighResolution.Coeff, 3
TestParameter, Measurement.WaitTime.Source.Coeff, 1
TestParameter, Measurement.WaitTime.Source.Offset, 0
TestParameter, Measurement.WaitTime.Monitor.Coeff, 1
TestParameter, Measurement.WaitTime.Monitor.Offset, 0
TestParameter, Function.User.Name, absIg, absId, absIs
TestParameter, Function.User.Unit, A, A, A
TestParameter, Function.User.Definition, abs(Ig), abs(Id), abs(Is)
TestParameter, Output.Graph.Enabled, true
TestParameter, Output.Graph.AutoScaling, false
TestParameter, Output.Graph.XAxis.Data, Vg
TestParameter, Output.Graph.XAxis.Scale, Linear
TestParameter, Output.Graph.XAxis.Left, -2.5
TestParameter, Output.Graph.XAxis.Right, 3.5
TestParameter, Output.Graph.XAxis.RunTimeAutoScale, true
TestParameter, Output.Graph.YAxis.Data, absIg, absId, absIs
TestParameter, Output.Graph.YAxis.Scale, Log, Log, Log
TestParameter, Output.Graph.YAxis.Bottom, 0, 0, 0
TestParameter, Output.Graph.YAxis.Top, 1, 1, 1
TestParameter, Output.Graph.YAxis.Group, Group 1, Group 1, Group 1
TestParameter, Output.Graph.YAxis.RunTimeAutoScale, true, true, true
TestParameter, Output.List.Data, Vg, Vd, Ig, Id, Is, absIg, absId, absIs
TestParameter, AutoAnalysis.Interpolation, false
TestParameter, AutoAnalysis.Var2StepCount, 1
TestParameter, AutoAnalysis.Var2StepScript, 
TestParameter, AutoAnalysis.Line1.Enabled, false
TestParameter, AutoAnalysis.Line1.Type, 1
TestParameter, AutoAnalysis.Line1.Fix, True
TestParameter, AutoAnalysis.Line1.YAxis, 0
TestParameter, AutoAnalysis.Line1.Point1.Type, 0
TestParameter, AutoAnalysis.Line1.Point1.XY.X, 
TestParameter, AutoAnalysis.Line1.Point1.XY.Y, 
TestParameter, AutoAnalysis.Line1.Point1.Data.Var, 
TestParameter, AutoAnalysis.Line1.Point1.Data.Condition, 
TestParameter, AutoAnalysis.Line1.Point1.Data.Start, false
TestParameter, AutoAnalysis.Line1.Point1.Data.StartVar, 
TestParameter, AutoAnalysis.Line1.Point1.Data.StartCondition, 
TestParameter, AutoAnalysis.Line1.Point2.Type, 0
TestParameter, AutoAnalysis.Line1.Point2.XY.X, 
TestParameter, AutoAnalysis.Line1.Point2.XY.Y, 
TestParameter, AutoAnalysis.Line1.Point2.Data.Var, 
TestParameter, AutoAnalysis.Line1.Point2.Data.Condition, 
TestParameter, AutoAnalysis.Line1.Point2.Data.Start, false
TestParameter, AutoAnalysis.Line1.Point2.Data.StartVar, 
TestParameter, AutoAnalysis.Line1.Point2.Data.StartCondition, 
TestParameter, AutoAnalysis.Line1.GradientExpr, 0
TestParameter, AutoAnalysis.Line2.Enabled, false
TestParameter, AutoAnalysis.Line2.Type, 1
TestParameter, AutoAnalysis.Line2.Fix, True
TestParameter, AutoAnalysis.Line2.YAxis, 0
TestParameter, AutoAnalysis.Line2.Point1.Type, 0
TestParameter, AutoAnalysis.Line2.Point1.XY.X, 
TestParameter, AutoAnalysis.Line2.Point1.XY.Y, 
TestParameter, AutoAnalysis.Line2.Point1.Data.Var, 
TestParameter, AutoAnalysis.Line2.Point1.Data.Condition, 
TestParameter, AutoAnalysis.Line2.Point1.Data.Start, false
TestParameter, AutoAnalysis.Line2.Point1.Data.StartVar, 
TestParameter, AutoAnalysis.Line2.Point1.Data.StartCondition, 
TestParameter, AutoAnalysis.Line2.Point2.Type, 0
TestParameter, AutoAnalysis.Line2.Point2.XY.X, 
TestParameter, AutoAnalysis.Line2.Point2.XY.Y, 
TestParameter, AutoAnalysis.Line2.Point2.Data.Var, 
TestParameter, AutoAnalysis.Line2.Point2.Data.Condition, 
TestParameter, AutoAnalysis.Line2.Point2.Data.Start, false
TestParameter, AutoAnalysis.Line2.Point2.Data.StartVar, 
TestParameter, AutoAnalysis.Line2.Point2.Data.StartCondition, 
TestParameter, AutoAnalysis.Line2.GradientExpr, 0
TestParameter, AutoAnalysis.Marker.Enabled, false
TestParameter, AutoAnalysis.Marker.Data.Var, 
TestParameter, AutoAnalysis.Marker.Data.Condition, 
TestParameter, AutoAnalysis.Marker.Data.Start, false
TestParameter, AutoAnalysis.Marker.Data.StartVar, 
TestParameter, AutoAnalysis.Marker.Data.StartCondition, 
MetaData, TestRecord.EntryPoint, true
MetaData, TestRecord.RecordTime, 04/07/2025 16:57:54
MetaData, TestRecord.TestTarget, BGAF 3_1 306 W64-L5
MetaData, TestRecord.IterationIndex, 38
MetaData, TestRecord.Preservation, true
MetaData, TestRecord.Flag, 
MetaData, TestRecord.Remarks, 
MetaData, TestRecord.LinkKey, 34879edb-d349-493c-8cef-4d343caf5899
MetaData, TestRecord.Parameters, 
Dimension1, 1302, 1302, 1302, 1302, 1302, 1302, 1302, 1302
Dimension2, 1, 1, 1, 1, 1, 1, 1, 1
DataName, Vg, Vd, Ig, Is, Id, absIg, absId, absIs
DataValue, -2.5, 1, -1.8133E-10, -1.02E-12, 1.8910000000000002E-10, 1.8133E-10, 1.8910000000000002E-10, 1.02E-12
DataValue, -2.4907500000000002, 1, -1.8444E-10, 8.0000000000000013E-14, 1.8087000000000002E-10, 1.8444E-10, 1.8087000000000002E-10, 8.0000000000000013E-14
DataValue, -2.4815, 1, -1.7927000000000002E-10, -1E-12, 1.7854E-10, 1.7927000000000002E-10, 1.7854E-10, 1E-12
DataValue, -2.47225, 1, -1.7219E-10, -3.4E-13, 1.7105000000000002E-10, 1.7219E-10, 1.7105000000000002E-10, 3.4E-13
DataValue, -2.463, 1, -1.6690000000000001E-10, -1.1500000000000002E-12, 1.6557E-10, 1.6690000000000001E-10, 1.6557E-10, 1.1500000000000002E-12
DataValue, -2.45375, 1, -1.6171E-10, -6.9000000000000009E-13, 1.5677000000000002E-10, 1.6171E-10, 1.5677000000000002E-10, 6.9000000000000009E-13
DataValue, -2.4445, 1, -1.5765000000000002E-10, -4.6000000000000006E-13, 1.5466E-10, 1.5765000000000002E-10, 1.5466E-10, 4.6000000000000006E-13
DataValue, -2.4355, 1, -1.5233E-10, -4.1E-13, 1.484E-10, 1.5233E-10, 1.484E-10, 4.1E-13
DataValue, -2.42625, 1, -1.4820000000000002E-10, -9.0000000000000008E-14, 1.4737E-10, 1.4820000000000002E-10, 1.4737E-10, 9.0000000000000008E-14
DataValue, -2.4170000000000003, 1, -1.4283E-10, 6.2000000000000008E-13, 1.4363E-10, 1.4283E-10, 1.4363E-10, 6.2000000000000008E-13
DataValue, -2.40775, 1, -1.3716000000000002E-10, 7.8000000000000011E-13, 1.3797000000000002E-10, 1.3716000000000002E-10, 1.3797000000000002E-10, 7.8000000000000011E-13
DataValue, -2.3985, 1, -1.3224E-10, 4.1E-13, 1.3345000000000002E-10, 1.3224E-10, 1.3345000000000002E-10, 4.1E-13
DataValue, -2.38925, 1, -1.2905E-10, 5.2E-13, 1.3045E-10, 1.2905E-10, 1.3045E-10, 5.2E-13
DataValue, -2.38, 1, -1.243E-10, 3.3E-13, 1.2553E-10, 1.243E-10, 1.2553E-10, 3.3E-13
DataValue, -2.37075, 1, -1.2045E-10, -3.7000000000000004E-13, 1.2328E-10, 1.2045E-10, 1.2328E-10, 3.7000000000000004E-13
DataValue, -2.3615, 1, -1.1614000000000001E-10, 3.0000000000000005E-14, 1.1787E-10, 1.1614000000000001E-10, 1.1787E-10, 3.0000000000000005E-14
DataValue, -2.35225, 1, -1.1142000000000001E-10, 8.9E-13, 1.1431E-10, 1.1142000000000001E-10, 1.1431E-10, 8.9E-13
DataValue, -2.343, 1, -1.0740000000000001E-10, -2.5E-13, 1.1143000000000001E-10, 1.0740000000000001E-10, 1.1143000000000001E-10, 2.5E-13
DataValue, -2.33375, 1, -1.0448000000000001E-10, -9.6000000000000015E-13, 1.0762000000000001E-10, 1.0448000000000001E-10, 1.0762000000000001E-10, 9.6000000000000015E-13
DataValue, -2.3245, 1, -1.0089000000000001E-10, -9.2000000000000012E-13, 1.0360000000000001E-10, 1.0089000000000001E-10, 1.0360000000000001E-10, 9.2000000000000012E-13
DataValue, -2.3155, 1, -9.7470000000000013E-11, -9.5E-13, 9.8740000000000013E-11, 9.7470000000000013E-11, 9.8740000000000013E-11, 9.5E-13
DataValue, -2.30625, 1, -9.4220000000000012E-11, -4.2000000000000003E-13, 9.6350000000000008E-11, 9.4220000000000012E-11, 9.6350000000000008E-11, 4.2000000000000003E-13
DataValue, -2.297, 1, -9.28E-11, -8.1000000000000008E-13, 9.167E-11, 9.28E-11, 9.167E-11, 8.1000000000000008E-13
DataValue, -2.28775, 1, -8.906E-11, 3.2000000000000005E-13, 9.0810000000000007E-11, 8.906E-11, 9.0810000000000007E-11, 3.2000000000000005E-13
DataValue, -2.2785, 1, -8.724E-11, -8.4000000000000006E-13, 8.804E-11, 8.724E-11, 8.804E-11, 8.4000000000000006E-13
DataValue, -2.26925, 1, -8.392E-11, 3.8000000000000005E-13, 8.4850000000000009E-11, 8.392E-11, 8.4850000000000009E-11, 3.8000000000000005E-13
DataValue, -2.2600000000000002, 1, -8.141E-11, 1.1500000000000002E-12, 8.1630000000000007E-11, 8.141E-11, 8.1630000000000007E-11, 1.1500000000000002E-12
DataValue, -2.25075, 1, -7.962E-11, 1.3E-13, 7.972000000000001E-11, 7.962E-11, 7.972000000000001E-11, 1.3E-13
DataValue, -2.2415, 1, -7.615E-11, -4.0000000000000006E-14, 7.698E-11, 7.615E-11, 7.698E-11, 4.0000000000000006E-14
DataValue, -2.23225, 1, -7.576E-11, 2.2000000000000002E-13, 7.4810000000000011E-11, 7.576E-11, 7.4810000000000011E-11, 2.2000000000000002E-13
DataValue, -2.223, 1, -7.508E-11, 4E-13, 7.323E-11, 7.508E-11, 7.323E-11, 4E-13
DataValue, -2.21375, 1, -7.317E-11, 5.6E-13, 7.281E-11, 7.317E-11, 7.281E-11, 5.6E-13
DataValue, -2.2045, 1, -7.0480000000000011E-11, -2.3000000000000003E-13, 7.011E-11, 7.0480000000000011E-11, 7.011E-11, 2.3000000000000003E-13
DataValue, -2.1955, 1, -6.8750000000000008E-11, -6.9000000000000009E-13, 6.778000000000001E-11, 6.8750000000000008E-11, 6.778000000000001E-11, 6.9000000000000009E-13
DataValue, -2.1862500000000002, 1, -6.592E-11, -1.7E-13, 6.5610000000000007E-11, 6.592E-11, 6.5610000000000007E-11, 1.7E-13
DataValue, -2.177, 1, -6.4420000000000009E-11, -9.5E-13, 6.361E-11, 6.4420000000000009E-11, 6.361E-11, 9.5E-13
DataValue, -2.16775, 1, -6.192E-11, -1.0500000000000002E-12, 6.129E-11, 6.192E-11, 6.129E-11, 1.0500000000000002E-12
DataValue, -2.1585, 1, -6.049E-11, -2.9000000000000003E-13, 5.6980000000000006E-11, 6.049E-11, 5.6980000000000006E-11, 2.9000000000000003E-13
DataValue, -2.14925, 1, -5.7860000000000008E-11, -1.4800000000000002E-12, 5.535E-11, 5.7860000000000008E-11, 5.535E-11, 1.4800000000000002E-12
DataValue, -2.14, 1, -5.6310000000000004E-11, -5E-14, 5.357E-11, 5.6310000000000004E-11, 5.357E-11, 5E-14
DataValue, -2.13075, 1, -5.372E-11, -1.2000000000000002E-13, 5.237E-11, 5.372E-11, 5.237E-11, 1.2000000000000002E-13
DataValue, -2.1215, 1, -5.19E-11, 5.5000000000000008E-13, 4.9920000000000007E-11, 5.19E-11, 4.9920000000000007E-11, 5.5000000000000008E-13
DataValue, -2.11225, 1, -5.0120000000000004E-11, 3.3E-13, 4.9500000000000004E-11, 5.0120000000000004E-11, 4.9500000000000004E-11, 3.3E-13
DataValue, -2.103, 1, -4.8280000000000007E-11, 7.7000000000000005E-13, 4.898E-11, 4.8280000000000007E-11, 4.898E-11, 7.7000000000000005E-13
DataValue, -2.09375, 1, -4.6370000000000004E-11, 6.7000000000000007E-13, 4.7250000000000005E-11, 4.6370000000000004E-11, 4.7250000000000005E-11, 6.7000000000000007E-13
DataValue, -2.0845000000000002, 1, -4.279E-11, -7E-14, 4.458E-11, 4.279E-11, 4.458E-11, 7E-14
DataValue, -2.0755, 1, -4.3060000000000004E-11, 3.1000000000000004E-13, 4.3170000000000004E-11, 4.3060000000000004E-11, 4.3170000000000004E-11, 3.1000000000000004E-13
DataValue, -2.06625, 1, -4.1650000000000006E-11, 6.3E-13, 4.2480000000000005E-11, 4.1650000000000006E-11, 4.2480000000000005E-11, 6.3E-13
DataValue, -2.057, 1, -3.8980000000000004E-11, 1.1000000000000001E-13, 4.1490000000000004E-11, 3.8980000000000004E-11, 4.1490000000000004E-11, 1.1000000000000001E-13
DataValue, -2.04775, 1, -3.8760000000000004E-11, 7.4000000000000008E-13, 3.879E-11, 3.8760000000000004E-11, 3.879E-11, 7.4000000000000008E-13
DataValue, -2.0385, 1, -3.7170000000000006E-11, 8.9E-13, 3.868E-11, 3.7170000000000006E-11, 3.868E-11, 8.9E-13
DataValue, -2.02925, 1, -3.499E-11, 1.5000000000000002E-13, 3.7820000000000005E-11, 3.499E-11, 3.7820000000000005E-11, 1.5000000000000002E-13
DataValue, -2.02, 1, -3.379E-11, 3.1000000000000004E-13, 3.5920000000000004E-11, 3.379E-11, 3.5920000000000004E-11, 3.1000000000000004E-13
DataValue, -2.0107500000000003, 1, -3.2280000000000004E-11, -9.2000000000000012E-13, 3.4580000000000005E-11, 3.2280000000000004E-11, 3.4580000000000005E-11, 9.2000000000000012E-13
DataValue, -2.0015, 1, -3.111E-11, -5.2E-13, 3.365E-11, 3.111E-11, 3.365E-11, 5.2E-13
DataValue, -1.99225, 1, -3.016E-11, -1.3E-13, 3.1230000000000005E-11, 3.016E-11, 3.1230000000000005E-11, 1.3E-13
DataValue, -1.983, 1, -2.942E-11, -1.5300000000000001E-12, 3.029E-11, 2.942E-11, 3.029E-11, 1.5300000000000001E-12
DataValue, -1.9737500000000001, 1, -2.808E-11, -7.5E-13, 3.073E-11, 2.808E-11, 3.073E-11, 7.5E-13
DataValue, -1.9645000000000001, 1, -2.691E-11, -1.22E-12, 2.931E-11, 2.691E-11, 2.931E-11, 1.22E-12
DataValue, -1.9555, 1, -2.68E-11, -8E-13, 2.7430000000000002E-11, 2.68E-11, 2.7430000000000002E-11, 8E-13
DataValue, -1.94625, 1, -2.518E-11, -2.3000000000000003E-13, 2.795E-11, 2.518E-11, 2.795E-11, 2.3000000000000003E-13
DataValue, -1.937, 1, -2.489E-11, -6.5000000000000006E-13, 2.5660000000000002E-11, 2.489E-11, 2.5660000000000002E-11, 6.5000000000000006E-13
DataValue, -1.92775, 1, -2.5740000000000003E-11, 2.0000000000000003E-14, 2.6190000000000002E-11, 2.5740000000000003E-11, 2.6190000000000002E-11, 2.0000000000000003E-14
DataValue, -1.9185, 1, -2.416E-11, 5.9E-13, 2.4880000000000002E-11, 2.416E-11, 2.4880000000000002E-11, 5.9E-13
DataValue, -1.9092500000000001, 1, -2.46E-11, -3.2000000000000005E-13, 2.493E-11, 2.46E-11, 2.493E-11, 3.2000000000000005E-13
DataValue, -1.9000000000000001, 1, -2.38E-11, 5.5000000000000008E-13, 2.3810000000000003E-11, 2.38E-11, 2.3810000000000003E-11, 5.5000000000000008E-13
DataValue, -1.89075, 1, -2.2920000000000003E-11, 1.31E-12, 2.314E-11, 2.2920000000000003E-11, 2.314E-11, 1.31E-12
DataValue, -1.8815, 1, -2.4280000000000002E-11, 4.6000000000000006E-13, 2.3190000000000003E-11, 2.4280000000000002E-11, 2.3190000000000003E-11, 4.6000000000000006E-13
DataValue, -1.87225, 1, -2.2280000000000003E-11, 1.13E-12, 2.278E-11, 2.2280000000000003E-11, 2.278E-11, 1.13E-12
DataValue, -1.863, 1, -2.1930000000000002E-11, 1.0000000000000002E-14, 2.3590000000000003E-11, 2.1930000000000002E-11, 2.3590000000000003E-11, 1.0000000000000002E-14
DataValue, -1.85375, 1, -2.105E-11, 1.1000000000000001E-13, 2.116E-11, 2.105E-11, 2.116E-11, 1.1000000000000001E-13
DataValue, -1.8445, 1, -2.147E-11, -1E-12, 1.9980000000000002E-11, 2.147E-11, 1.9980000000000002E-11, 1E-12
DataValue, -1.8355000000000001, 1, -2.0550000000000003E-11, -5.3000000000000006E-13, 2.0060000000000003E-11, 2.0550000000000003E-11, 2.0060000000000003E-11, 5.3000000000000006E-13
DataValue, -1.82625, 1, -1.952E-11, -1.14E-12, 1.8000000000000002E-11, 1.952E-11, 1.8000000000000002E-11, 1.14E-12
DataValue, -1.817, 1, -1.8760000000000002E-11, -8.7E-13, 1.817E-11, 1.8760000000000002E-11, 1.817E-11, 8.7E-13
DataValue, -1.80775, 1, -1.837E-11, -3.8000000000000005E-13, 1.597E-11, 1.837E-11, 1.597E-11, 3.8000000000000005E-13
DataValue, -1.7985, 1, -1.764E-11, -5E-13, 1.568E-11, 1.764E-11, 1.568E-11, 5E-13
DataValue, -1.78925, 1, -1.726E-11, -6.7000000000000007E-13, 1.471E-11, 1.726E-11, 1.471E-11, 6.7000000000000007E-13
DataValue, -1.78, 1, -1.602E-11, -3.3E-13, 1.4170000000000001E-11, 1.602E-11, 1.4170000000000001E-11, 3.3E-13
DataValue, -1.77075, 1, -1.5360000000000002E-11, -4.4000000000000004E-13, 1.3670000000000001E-11, 1.5360000000000002E-11, 1.3670000000000001E-11, 4.4000000000000004E-13
DataValue, -1.7615, 1, -1.4270000000000001E-11, 2.1000000000000001E-13, 1.3860000000000001E-11, 1.4270000000000001E-11, 1.3860000000000001E-11, 2.1000000000000001E-13
DataValue, -1.75225, 1, -1.4080000000000001E-11, 8.6000000000000007E-13, 1.4060000000000001E-11, 1.4080000000000001E-11, 1.4060000000000001E-11, 8.6000000000000007E-13
DataValue, -1.743, 1, -1.178E-11, 6.400000000000001E-13, 1.2930000000000001E-11, 1.178E-11, 1.2930000000000001E-11, 6.400000000000001E-13
DataValue, -1.7337500000000001, 1, -1.079E-11, 1.27E-12, 1.27E-11, 1.079E-11, 1.27E-11, 1.27E-12
DataValue, -1.7245000000000001, 1, -1.088E-11, 9.0000000000000008E-14, 1.3090000000000002E-11, 1.088E-11, 1.3090000000000002E-11, 9.0000000000000008E-14
DataValue, -1.7155, 1, -9.7200000000000014E-12, 2.4000000000000004E-13, 1.259E-11, 9.7200000000000014E-12, 1.259E-11, 2.4000000000000004E-13
DataValue, -1.70625, 1, -9.0100000000000014E-12, 1.0000000000000002E-14, 9.9300000000000015E-12, 9.0100000000000014E-12, 9.9300000000000015E-12, 1.0000000000000002E-14
DataValue, -1.697, 1, -8.8000000000000013E-12, -5E-13, 1.0710000000000001E-11, 8.8000000000000013E-12, 1.0710000000000001E-11, 5E-13
DataValue, -1.68775, 1, -8.25E-12, -5.3000000000000006E-13, 9.96E-12, 8.25E-12, 9.96E-12, 5.3000000000000006E-13
DataValue, -1.6785, 1, -7.73E-12, -9.9E-13, 9.900000000000001E-12, 7.73E-12, 9.900000000000001E-12, 9.9E-13
DataValue, -1.6692500000000001, 1, -7.64E-12, -7.8000000000000011E-13, 1.016E-11, 7.64E-12, 1.016E-11, 7.8000000000000011E-13
DataValue, -1.6600000000000001, 1, -8.01E-12, -1.1500000000000002E-12, 9.8000000000000011E-12, 8.01E-12, 9.8000000000000011E-12, 1.1500000000000002E-12
DataValue, -1.65075, 1, -8.1000000000000014E-12, -3.2000000000000005E-13, 8.73E-12, 8.1000000000000014E-12, 8.73E-12, 3.2000000000000005E-13
DataValue, -1.6415, 1, -7.29E-12, -1.2900000000000002E-12, 9.2200000000000015E-12, 7.29E-12, 9.2200000000000015E-12, 1.2900000000000002E-12
DataValue, -1.63225, 1, -7.7900000000000013E-12, 6.6E-13, 9.53E-12, 7.7900000000000013E-12, 9.53E-12, 6.6E-13
DataValue, -1.623, 1, -7.8900000000000013E-12, 2.9000000000000003E-13, 9.0900000000000011E-12, 7.8900000000000013E-12, 9.0900000000000011E-12, 2.9000000000000003E-13
DataValue, -1.61375, 1, -8.43E-12, -3.0000000000000003E-13, 8.95E-12, 8.43E-12, 8.95E-12, 3.0000000000000003E-13
DataValue, -1.6045, 1, -8.34E-12, 1.31E-12, 8.6700000000000008E-12, 8.34E-12, 8.6700000000000008E-12, 1.31E-12
DataValue, -1.5955000000000001, 1, -9.86E-12, 7.2000000000000006E-13, 8.6000000000000013E-12, 9.86E-12, 8.6000000000000013E-12, 7.2000000000000006E-13
DataValue, -1.58625, 1, -9.43E-12, 6.0000000000000007E-13, 8.2700000000000009E-12, 9.43E-12, 8.2700000000000009E-12, 6.0000000000000007E-13
DataValue, -1.577, 1, -8.9800000000000009E-12, -2E-13, 8.7000000000000013E-12, 8.9800000000000009E-12, 8.7000000000000013E-12, 2E-13
