
SetupTitle, Vd=1V(-2.5,3.5)
PrimitiveTest, I/V Sweep
TestParameter, Context.MainFrame, B1500A
TestParameter, Channel.UnitType, SMU, SMU, SMU
TestParameter, Channel.Unit, SMU1:HR, SMU2:HR, SMU3:HR
TestParameter, Channel.IName, Ig, Is, Id
TestParameter, Channel.VName, Vg, Vs, Vd
TestParameter, Channel.Mode, V, V, V
TestParameter, Channel.Func, VAR1, CONST, CONST
TestParameter, Channel.Index, 
TestParameter, Channel.Time, 
TestParameter, Measurement.Port.Unit, SMU1:HR, SMU2:HR, SMU3:HR
TestParameter, Measurement.Port.SeriesResistor, NONE, NONE, NONE
TestParameter, Measurement.Port.Filter, ON, ON, ON
TestParameter, Measurement.Port.OutputVoltageComparison, 0, 0, 0
TestParameter, Measurement.Primary.Locus, Double
TestParameter, Measurement.Primary.Scale, LINEAR
TestParameter, Measurement.Primary.Start, -2.5
TestParameter, Measurement.Primary.Stop, 3.5
TestParameter, Measurement.Primary.Step, 0.00925
TestParameter, Measurement.Primary.Compliance, 0.1
TestParameter, Measurement.Primary.PowerCompliance, 0
TestParameter, Measurement.Aborting.Condition, CONTINUE AT ANY
TestParameter, Measurement.PostOutput.Value, START
TestParameter, Measurement.PostOutput.Retention, OFF
TestParameter, Measurement.Bias.Source, -2.5, 0, 1
TestParameter, Measurement.Bias.Compliance, 0.1, 0.1, 0.1
TestParameter, Measurement.Monitor.Unit, SMU1:HR, SMU2:HR, SMU3:HR
TestParameter, Measurement.Monitor.Adc, HR ADC, HR ADC, HR ADC
TestParameter, Measurement.Monitor.Measurement, Compliance Side, Compliance Side, Compliance Side
TestParameter, Measurement.Monitor.RangingMode, LIMITED, LIMITED, LIMITED
TestParameter, Measurement.Monitor.RangeBoundary, 1nA, 1nA, 1nA
TestParameter, Measurement.Monitor.RangeRating, BY FULL RANGE, BY FULL RANGE, BY FULL RANGE
TestParameter, Measurement.Monitor.RangeRatingCoeff, 50, 50, 50
TestParameter, Measurement.Timing.Hold, 0
TestParameter, Measurement.Timing.Delay, 0
TestParameter, Measurement.Adc.HighSpeed.Mode, AUTO
TestParameter, Measurement.Adc.HighSpeed.Coeff, 1
TestParameter, Measurement.Adc.HighResolution.AutoZero, OFF
TestParameter, Measurement.Adc.HighResolution.Mode, AUTO
TestParameter, Measurement.Adc.HighResolution.Coeff, 3
TestParameter, Measurement.WaitTime.Source.Coeff, 1
TestParameter, Measurement.WaitTime.Source.Offset, 0
TestParameter, Measurement.WaitTime.Monitor.Coeff, 1
TestParameter, Measurement.WaitTime.Monitor.Offset, 0
TestParameter, Function.User.Name, absIg, absId, absIs
TestParameter, Function.User.Unit, A, A, A
TestParameter, Function.User.Definition, abs(Ig), abs(Id), abs(Is)
TestParameter, Output.Graph.Enabled, true
TestParameter, Output.Graph.AutoScaling, false
TestParameter, Output.Graph.XAxis.Data, Vg
TestParameter, Output.Graph.XAxis.Scale, Linear
TestParameter, Output.Graph.XAxis.Left, -2.5
TestParameter, Output.Graph.XAxis.Right, 3.5
TestParameter, Output.Graph.XAxis.RunTimeAutoScale, true
TestParameter, Output.Graph.YAxis.Data, absIg, absId, absIs
TestParameter, Output.Graph.YAxis.Scale, Log, Log, Log
TestParameter, Output.Graph.YAxis.Bottom, 0, 0, 0
TestParameter, Output.Graph.YAxis.Top, 1, 1, 1
TestParameter, Output.Graph.YAxis.Group, Group 1, Group 1, Group 1
TestParameter, Output.Graph.YAxis.RunTimeAutoScale, true, true, true
TestParameter, Output.List.Data, Vg, Vd, Ig, Id, Is, absIg, absId, absIs
TestParameter, AutoAnalysis.Interpolation, false
TestParameter, AutoAnalysis.Var2StepCount, 1
TestParameter, AutoAnalysis.Var2StepScript, 
TestParameter, AutoAnalysis.Line1.Enabled, false
TestParameter, AutoAnalysis.Line1.Type, 1
TestParameter, AutoAnalysis.Line1.Fix, True
TestParameter, AutoAnalysis.Line1.YAxis, 0
TestParameter, AutoAnalysis.Line1.Point1.Type, 0
TestParameter, AutoAnalysis.Line1.Point1.XY.X, 
TestParameter, AutoAnalysis.Line1.Point1.XY.Y, 
TestParameter, AutoAnalysis.Line1.Point1.Data.Var, 
TestParameter, AutoAnalysis.Line1.Point1.Data.Condition, 
TestParameter, AutoAnalysis.Line1.Point1.Data.Start, false
TestParameter, AutoAnalysis.Line1.Point1.Data.StartVar, 
TestParameter, AutoAnalysis.Line1.Point1.Data.StartCondition, 
TestParameter, AutoAnalysis.Line1.Point2.Type, 0
TestParameter, AutoAnalysis.Line1.Point2.XY.X, 
TestParameter, AutoAnalysis.Line1.Point2.XY.Y, 
TestParameter, AutoAnalysis.Line1.Point2.Data.Var, 
TestParameter, AutoAnalysis.Line1.Point2.Data.Condition, 
TestParameter, AutoAnalysis.Line1.Point2.Data.Start, false
TestParameter, AutoAnalysis.Line1.Point2.Data.StartVar, 
TestParameter, AutoAnalysis.Line1.Point2.Data.StartCondition, 
TestParameter, AutoAnalysis.Line1.GradientExpr, 0
TestParameter, AutoAnalysis.Line2.Enabled, false
TestParameter, AutoAnalysis.Line2.Type, 1
TestParameter, AutoAnalysis.Line2.Fix, True
TestParameter, AutoAnalysis.Line2.YAxis, 0
TestParameter, AutoAnalysis.Line2.Point1.Type, 0
TestParameter, AutoAnalysis.Line2.Point1.XY.X, 
TestParameter, AutoAnalysis.Line2.Point1.XY.Y, 
TestParameter, AutoAnalysis.Line2.Point1.Data.Var, 
TestParameter, AutoAnalysis.Line2.Point1.Data.Condition, 
TestParameter, AutoAnalysis.Line2.Point1.Data.Start, false
TestParameter, AutoAnalysis.Line2.Point1.Data.StartVar, 
TestParameter, AutoAnalysis.Line2.Point1.Data.StartCondition, 
TestParameter, AutoAnalysis.Line2.Point2.Type, 0
TestParameter, AutoAnalysis.Line2.Point2.XY.X, 
TestParameter, AutoAnalysis.Line2.Point2.XY.Y, 
TestParameter, AutoAnalysis.Line2.Point2.Data.Var, 
TestParameter, AutoAnalysis.Line2.Point2.Data.Condition, 
TestParameter, AutoAnalysis.Line2.Point2.Data.Start, false
TestParameter, AutoAnalysis.Line2.Point2.Data.StartVar, 
TestParameter, AutoAnalysis.Line2.Point2.Data.StartCondition, 
TestParameter, AutoAnalysis.Line2.GradientExpr, 0
TestParameter, AutoAnalysis.Marker.Enabled, false
TestParameter, AutoAnalysis.Marker.Data.Var, 
TestParameter, AutoAnalysis.Marker.Data.Condition, 
TestParameter, AutoAnalysis.Marker.Data.Start, false
TestParameter, AutoAnalysis.Marker.Data.StartVar, 
TestParameter, AutoAnalysis.Marker.Data.StartCondition, 
MetaData, TestRecord.EntryPoint, true
MetaData, TestRecord.RecordTime, 04/07/2025 16:50:50
MetaData, TestRecord.TestTarget, BGAF 3_1 206 W64-L8
MetaData, TestRecord.IterationIndex, 33
MetaData, TestRecord.Preservation, true
MetaData, TestRecord.Flag, 
MetaData, TestRecord.Remarks, 
MetaData, TestRecord.LinkKey, 7e85ec90-9990-4f6e-93a0-f9e7b82763b0
MetaData, TestRecord.Parameters, 
Dimension1, 1302, 1302, 1302, 1302, 1302, 1302, 1302, 1302
Dimension2, 1, 1, 1, 1, 1, 1, 1, 1
DataName, Vg, Vd, Ig, Is, Id, absIg, absId, absIs
DataValue, -2.5, 1, -2.2760000000000002E-10, -2E-13, 2.3810000000000004E-10, 2.2760000000000002E-10, 2.3810000000000004E-10, 2E-13
DataValue, -2.4907500000000002, 1, -2.2720000000000003E-10, -2.2000000000000002E-13, 2.3148E-10, 2.2720000000000003E-10, 2.3148E-10, 2.2000000000000002E-13
DataValue, -2.4815, 1, -2.2106E-10, -4.3000000000000004E-13, 2.2380000000000002E-10, 2.2106E-10, 2.2380000000000002E-10, 4.3000000000000004E-13
DataValue, -2.47225, 1, -2.1356E-10, -1.9000000000000002E-13, 2.1598000000000001E-10, 2.1356E-10, 2.1598000000000001E-10, 1.9000000000000002E-13
DataValue, -2.463, 1, -2.0902000000000002E-10, 5E-14, 2.1074000000000001E-10, 2.0902000000000002E-10, 2.1074000000000001E-10, 5E-14
DataValue, -2.45375, 1, -2.0222000000000003E-10, 1.3E-13, 2.0425000000000002E-10, 2.0222000000000003E-10, 2.0425000000000002E-10, 1.3E-13
DataValue, -2.4445, 1, -1.9628000000000002E-10, 5E-14, 1.9794000000000002E-10, 1.9628000000000002E-10, 1.9794000000000002E-10, 5E-14
DataValue, -2.4355, 1, -1.9009E-10, -4.3000000000000004E-13, 1.9003000000000002E-10, 1.9009E-10, 1.9003000000000002E-10, 4.3000000000000004E-13
DataValue, -2.42625, 1, -1.8405000000000003E-10, 2E-13, 1.8409E-10, 1.8405000000000003E-10, 1.8409E-10, 2E-13
DataValue, -2.4170000000000003, 1, -1.7924000000000002E-10, 6.8E-13, 1.7913E-10, 1.7924000000000002E-10, 1.7913E-10, 6.8E-13
DataValue, -2.40775, 1, -1.7354E-10, 7.8000000000000011E-13, 1.7199000000000002E-10, 1.7354E-10, 1.7199000000000002E-10, 7.8000000000000011E-13
DataValue, -2.3985, 1, -1.6951000000000002E-10, 1.0600000000000001E-12, 1.6848000000000002E-10, 1.6951000000000002E-10, 1.6848000000000002E-10, 1.0600000000000001E-12
DataValue, -2.38925, 1, -1.6436000000000002E-10, -8.0000000000000013E-14, 1.6338E-10, 1.6436000000000002E-10, 1.6338E-10, 8.0000000000000013E-14
DataValue, -2.38, 1, -1.6043E-10, 9.000000000000001E-13, 1.5976000000000003E-10, 1.6043E-10, 1.5976000000000003E-10, 9.000000000000001E-13
DataValue, -2.37075, 1, -1.549E-10, 3.8000000000000005E-13, 1.5555000000000002E-10, 1.549E-10, 1.5555000000000002E-10, 3.8000000000000005E-13
DataValue, -2.3615, 1, -1.5164E-10, -4.9E-13, 1.5112000000000002E-10, 1.5164E-10, 1.5112000000000002E-10, 4.9E-13
DataValue, -2.35225, 1, -1.4636E-10, -4.1E-13, 1.4506000000000001E-10, 1.4636E-10, 1.4506000000000001E-10, 4.1E-13
DataValue, -2.343, 1, -1.4233000000000001E-10, -7E-14, 1.4161000000000002E-10, 1.4233000000000001E-10, 1.4161000000000002E-10, 7E-14
DataValue, -2.33375, 1, -1.3759E-10, 0, 1.3772000000000002E-10, 1.3759E-10, 1.3772000000000002E-10, 0
DataValue, -2.3245, 1, -1.3432E-10, 2.5E-13, 1.2975000000000002E-10, 1.3432E-10, 1.2975000000000002E-10, 2.5E-13
DataValue, -2.3155, 1, -1.2915000000000001E-10, 2.4000000000000004E-13, 1.2742E-10, 1.2915000000000001E-10, 1.2742E-10, 2.4000000000000004E-13
DataValue, -2.30625, 1, -1.2509E-10, -5.4E-13, 1.2186E-10, 1.2509E-10, 1.2186E-10, 5.4E-13
DataValue, -2.297, 1, -1.2011E-10, -1.7E-13, 1.1954E-10, 1.2011E-10, 1.1954E-10, 1.7E-13
DataValue, -2.28775, 1, -1.1600000000000001E-10, 7.8000000000000011E-13, 1.1400000000000001E-10, 1.1600000000000001E-10, 1.1400000000000001E-10, 7.8000000000000011E-13
DataValue, -2.2785, 1, -1.1145000000000001E-10, 1.5000000000000002E-13, 1.0924E-10, 1.1145000000000001E-10, 1.0924E-10, 1.5000000000000002E-13
DataValue, -2.26925, 1, -1.0878000000000001E-10, 1.0600000000000001E-12, 1.0896E-10, 1.0878000000000001E-10, 1.0896E-10, 1.0600000000000001E-12
DataValue, -2.2600000000000002, 1, -1.035E-10, 6.9000000000000009E-13, 1.0377000000000001E-10, 1.035E-10, 1.0377000000000001E-10, 6.9000000000000009E-13
DataValue, -2.25075, 1, -1.003E-10, 1.0000000000000002E-14, 1.0280000000000001E-10, 1.003E-10, 1.0280000000000001E-10, 1.0000000000000002E-14
DataValue, -2.2415, 1, -9.6380000000000007E-11, 7.4000000000000008E-13, 9.9070000000000013E-11, 9.6380000000000007E-11, 9.9070000000000013E-11, 7.4000000000000008E-13
DataValue, -2.23225, 1, -9.3500000000000013E-11, -5E-14, 9.597E-11, 9.3500000000000013E-11, 9.597E-11, 5E-14
DataValue, -2.223, 1, -9.035E-11, 4.8000000000000008E-13, 9.2520000000000007E-11, 9.035E-11, 9.2520000000000007E-11, 4.8000000000000008E-13
DataValue, -2.21375, 1, -8.7360000000000009E-11, 2.1000000000000001E-13, 9.075000000000001E-11, 8.7360000000000009E-11, 9.075000000000001E-11, 2.1000000000000001E-13
DataValue, -2.2045, 1, -8.498E-11, -6.8E-13, 8.723E-11, 8.498E-11, 8.723E-11, 6.8E-13
DataValue, -2.1955, 1, -8.208E-11, -8.6000000000000007E-13, 8.3560000000000007E-11, 8.208E-11, 8.3560000000000007E-11, 8.6000000000000007E-13
DataValue, -2.1862500000000002, 1, -7.892000000000001E-11, -9.0000000000000008E-14, 8.2180000000000007E-11, 7.892000000000001E-11, 8.2180000000000007E-11, 9.0000000000000008E-14
DataValue, -2.177, 1, -7.7410000000000007E-11, -6.400000000000001E-13, 7.9470000000000011E-11, 7.7410000000000007E-11, 7.9470000000000011E-11, 6.400000000000001E-13
DataValue, -2.16775, 1, -7.441E-11, -1.6000000000000003E-13, 7.5470000000000012E-11, 7.441E-11, 7.5470000000000012E-11, 1.6000000000000003E-13
DataValue, -2.1585, 1, -7.289E-11, -9.2000000000000012E-13, 7.3740000000000009E-11, 7.289E-11, 7.3740000000000009E-11, 9.2000000000000012E-13
DataValue, -2.14925, 1, -7.119E-11, -1.6000000000000003E-13, 7.028E-11, 7.119E-11, 7.028E-11, 1.6000000000000003E-13
DataValue, -2.14, 1, -6.836000000000001E-11, -1.2000000000000002E-13, 6.8860000000000008E-11, 6.836000000000001E-11, 6.8860000000000008E-11, 1.2000000000000002E-13
DataValue, -2.13075, 1, -6.769E-11, 1.21E-12, 6.733E-11, 6.769E-11, 6.733E-11, 1.21E-12
DataValue, -2.1215, 1, -6.4780000000000008E-11, 1.1500000000000002E-12, 6.495E-11, 6.4780000000000008E-11, 6.495E-11, 1.1500000000000002E-12
DataValue, -2.11225, 1, -6.303E-11, 2.8E-13, 6.322E-11, 6.303E-11, 6.322E-11, 2.8E-13
DataValue, -2.103, 1, -6.211E-11, 1.1500000000000002E-12, 6.1740000000000011E-11, 6.211E-11, 6.1740000000000011E-11, 1.1500000000000002E-12
DataValue, -2.09375, 1, -6.094E-11, 5.3000000000000006E-13, 5.9760000000000009E-11, 6.094E-11, 5.9760000000000009E-11, 5.3000000000000006E-13
DataValue, -2.0845000000000002, 1, -5.941E-11, -3.0000000000000005E-14, 5.945E-11, 5.941E-11, 5.945E-11, 3.0000000000000005E-14
DataValue, -2.0755, 1, -5.7380000000000006E-11, -1.1000000000000001E-13, 5.7150000000000004E-11, 5.7380000000000006E-11, 5.7150000000000004E-11, 1.1000000000000001E-13
DataValue, -2.06625, 1, -5.641E-11, 4.0000000000000006E-14, 5.539E-11, 5.641E-11, 5.539E-11, 4.0000000000000006E-14
DataValue, -2.057, 1, -5.481E-11, -4.4000000000000004E-13, 5.331E-11, 5.481E-11, 5.331E-11, 4.4000000000000004E-13
DataValue, -2.04775, 1, -5.3360000000000004E-11, -1.02E-12, 5.1210000000000003E-11, 5.3360000000000004E-11, 5.1210000000000003E-11, 1.02E-12
DataValue, -2.0385, 1, -5.171E-11, -3.8000000000000005E-13, 5.026E-11, 5.171E-11, 5.026E-11, 3.8000000000000005E-13
DataValue, -2.02925, 1, -5.003E-11, -3.7000000000000004E-13, 4.643E-11, 5.003E-11, 4.643E-11, 3.7000000000000004E-13
DataValue, -2.02, 1, -4.7370000000000007E-11, -1.07E-12, 4.5750000000000004E-11, 4.7370000000000007E-11, 4.5750000000000004E-11, 1.07E-12
DataValue, -2.0107500000000003, 1, -4.5840000000000007E-11, -4.5000000000000005E-13, 4.37E-11, 4.5840000000000007E-11, 4.37E-11, 4.5000000000000005E-13
DataValue, -2.0015, 1, -4.3860000000000004E-11, 2.6E-13, 4.1060000000000005E-11, 4.3860000000000004E-11, 4.1060000000000005E-11, 2.6E-13
DataValue, -1.99225, 1, -4.1930000000000004E-11, 5.2E-13, 4.031E-11, 4.1930000000000004E-11, 4.031E-11, 5.2E-13
DataValue, -1.983, 1, -3.9900000000000006E-11, 8.4000000000000006E-13, 4.0000000000000004E-11, 3.9900000000000006E-11, 4.0000000000000004E-11, 8.4000000000000006E-13
DataValue, -1.9737500000000001, 1, -3.886E-11, 5.2E-13, 3.9210000000000006E-11, 3.886E-11, 3.9210000000000006E-11, 5.2E-13
DataValue, -1.9645000000000001, 1, -3.7200000000000005E-11, 1.1000000000000001E-13, 3.805E-11, 3.7200000000000005E-11, 3.805E-11, 1.1000000000000001E-13
DataValue, -1.9555, 1, -3.482E-11, 1.32E-12, 3.671E-11, 3.482E-11, 3.671E-11, 1.32E-12
DataValue, -1.94625, 1, -3.368E-11, 1.7E-13, 3.627E-11, 3.368E-11, 3.627E-11, 1.7E-13
DataValue, -1.937, 1, -3.1960000000000005E-11, 4.1E-13, 3.4800000000000005E-11, 3.1960000000000005E-11, 3.4800000000000005E-11, 4.1E-13
DataValue, -1.92775, 1, -3.0360000000000006E-11, -2.5E-13, 3.453E-11, 3.0360000000000006E-11, 3.453E-11, 2.5E-13
DataValue, -1.9185, 1, -2.98E-11, -9.000000000000001E-13, 3.1480000000000004E-11, 2.98E-11, 3.1480000000000004E-11, 9.000000000000001E-13
DataValue, -1.9092500000000001, 1, -2.8420000000000004E-11, -3.2000000000000005E-13, 3.149E-11, 2.8420000000000004E-11, 3.149E-11, 3.2000000000000005E-13
DataValue, -1.9000000000000001, 1, -2.8070000000000003E-11, -4.4000000000000004E-13, 2.875E-11, 2.8070000000000003E-11, 2.875E-11, 4.4000000000000004E-13
DataValue, -1.89075, 1, -2.7450000000000003E-11, -6.8E-13, 2.795E-11, 2.7450000000000003E-11, 2.795E-11, 6.8E-13
DataValue, -1.8815, 1, -2.6790000000000002E-11, -1.04E-12, 2.938E-11, 2.6790000000000002E-11, 2.938E-11, 1.04E-12
DataValue, -1.87225, 1, -2.551E-11, -8.1000000000000008E-13, 2.7080000000000002E-11, 2.551E-11, 2.7080000000000002E-11, 8.1000000000000008E-13
DataValue, -1.863, 1, -2.4480000000000002E-11, -2.0000000000000003E-14, 2.4410000000000003E-11, 2.4480000000000002E-11, 2.4410000000000003E-11, 2.0000000000000003E-14
DataValue, -1.85375, 1, -2.369E-11, 4.7E-13, 2.4630000000000003E-11, 2.369E-11, 2.4630000000000003E-11, 4.7E-13
DataValue, -1.8445, 1, -2.3220000000000002E-11, 6.9000000000000009E-13, 2.2860000000000002E-11, 2.3220000000000002E-11, 2.2860000000000002E-11, 6.9000000000000009E-13
DataValue, -1.8355000000000001, 1, -2.329E-11, 3.0000000000000003E-13, 2.2590000000000003E-11, 2.329E-11, 2.2590000000000003E-11, 3.0000000000000003E-13
DataValue, -1.82625, 1, -2.2610000000000003E-11, 8.2E-13, 2.38E-11, 2.2610000000000003E-11, 2.38E-11, 8.2E-13
DataValue, -1.817, 1, -2.2510000000000002E-11, 6.0000000000000009E-14, 2.209E-11, 2.2510000000000002E-11, 2.209E-11, 6.0000000000000009E-14
DataValue, -1.80775, 1, -2.2610000000000003E-11, 8.6000000000000007E-13, 2.1220000000000002E-11, 2.2610000000000003E-11, 2.1220000000000002E-11, 8.6000000000000007E-13
DataValue, -1.7985, 1, -2.2E-11, 5.4E-13, 2.1570000000000003E-11, 2.2E-11, 2.1570000000000003E-11, 5.4E-13
DataValue, -1.78925, 1, -2.1680000000000003E-11, 1.3E-13, 2.13E-11, 2.1680000000000003E-11, 2.13E-11, 1.3E-13
DataValue, -1.78, 1, -2.174E-11, 5E-14, 2.1310000000000002E-11, 2.174E-11, 2.1310000000000002E-11, 5E-14
DataValue, -1.77075, 1, -2.1020000000000002E-11, 1.9000000000000002E-13, 1.965E-11, 2.1020000000000002E-11, 1.965E-11, 1.9000000000000002E-13
DataValue, -1.7615, 1, -2.143E-11, -8.6000000000000007E-13, 1.848E-11, 2.143E-11, 1.848E-11, 8.6000000000000007E-13
DataValue, -1.75225, 1, -2.039E-11, -5.8000000000000005E-13, 1.8600000000000002E-11, 2.039E-11, 1.8600000000000002E-11, 5.8000000000000005E-13
DataValue, -1.743, 1, -1.8950000000000003E-11, -3.0000000000000005E-14, 1.779E-11, 1.8950000000000003E-11, 1.779E-11, 3.0000000000000005E-14
DataValue, -1.7337500000000001, 1, -1.808E-11, -9.1000000000000016E-13, 1.591E-11, 1.808E-11, 1.591E-11, 9.1000000000000016E-13
DataValue, -1.7245000000000001, 1, -1.703E-11, -3.7000000000000004E-13, 1.582E-11, 1.703E-11, 1.582E-11, 3.7000000000000004E-13
DataValue, -1.7155, 1, -1.688E-11, 1.3E-13, 1.526E-11, 1.688E-11, 1.526E-11, 1.3E-13
DataValue, -1.70625, 1, -1.491E-11, 6.6E-13, 1.433E-11, 1.491E-11, 1.433E-11, 6.6E-13
DataValue, -1.697, 1, -1.488E-11, 6.3E-13, 1.3290000000000002E-11, 1.488E-11, 1.3290000000000002E-11, 6.3E-13
DataValue, -1.68775, 1, -1.452E-11, 8.0000000000000013E-14, 1.3590000000000002E-11, 1.452E-11, 1.3590000000000002E-11, 8.0000000000000013E-14
DataValue, -1.6785, 1, -1.4180000000000001E-11, 9.2000000000000012E-13, 1.32E-11, 1.4180000000000001E-11, 1.32E-11, 9.2000000000000012E-13
DataValue, -1.6692500000000001, 1, -1.2060000000000002E-11, 1.7E-13, 1.2330000000000001E-11, 1.2060000000000002E-11, 1.2330000000000001E-11, 1.7E-13
DataValue, -1.6600000000000001, 1, -1.1610000000000001E-11, -1.0000000000000002E-14, 1.279E-11, 1.1610000000000001E-11, 1.279E-11, 1.0000000000000002E-14
DataValue, -1.65075, 1, -9.86E-12, 7.9000000000000007E-13, 1.2260000000000002E-11, 9.86E-12, 1.2260000000000002E-11, 7.9000000000000007E-13
DataValue, -1.6415, 1, -8.95E-12, 5.8000000000000005E-13, 1.2880000000000002E-11, 8.95E-12, 1.2880000000000002E-11, 5.8000000000000005E-13
DataValue, -1.63225, 1, -8.95E-12, 6.0000000000000009E-14, 1.2260000000000002E-11, 8.95E-12, 1.2260000000000002E-11, 6.0000000000000009E-14
DataValue, -1.623, 1, -8.2900000000000012E-12, -6.400000000000001E-13, 1.2140000000000001E-11, 8.2900000000000012E-12, 1.2140000000000001E-11, 6.400000000000001E-13
DataValue, -1.61375, 1, -8.44E-12, -4.5000000000000005E-13, 1.078E-11, 8.44E-12, 1.078E-11, 4.5000000000000005E-13
DataValue, -1.6045, 1, -7.72E-12, -4E-13, 1.0130000000000002E-11, 7.72E-12, 1.0130000000000002E-11, 4E-13
DataValue, -1.5955000000000001, 1, -7.8600000000000008E-12, -2.21E-12, 9.4000000000000011E-12, 7.8600000000000008E-12, 9.4000000000000011E-12, 2.21E-12
DataValue, -1.58625, 1, -7.3E-12, -1.8000000000000002E-13, 9.1000000000000012E-12, 7.3E-12, 9.1000000000000012E-12, 1.8000000000000002E-13
