
SetupTitle, Vd=1V(-2.5,3.5)
PrimitiveTest, I/V Sweep
TestParameter, Context.MainFrame, B1500A
TestParameter, Channel.UnitType, SMU, SMU, SMU
TestParameter, Channel.Unit, SMU1:HR, SMU2:HR, SMU3:HR
TestParameter, Channel.IName, Ig, Is, Id
TestParameter, Channel.VName, Vg, Vs, Vd
TestParameter, Channel.Mode, V, V, V
TestParameter, Channel.Func, VAR1, CONST, CONST
TestParameter, Channel.Index, 
TestParameter, Channel.Time, 
TestParameter, Measurement.Port.Unit, SMU1:HR, SMU2:HR, SMU3:HR
TestParameter, Measurement.Port.SeriesResistor, NONE, NONE, NONE
TestParameter, Measurement.Port.Filter, ON, ON, ON
TestParameter, Measurement.Port.OutputVoltageComparison, 0, 0, 0
TestParameter, Measurement.Primary.Locus, Double
TestParameter, Measurement.Primary.Scale, LINEAR
TestParameter, Measurement.Primary.Start, -2.5
TestParameter, Measurement.Primary.Stop, 3.5
TestParameter, Measurement.Primary.Step, 0.00925
TestParameter, Measurement.Primary.Compliance, 0.1
TestParameter, Measurement.Primary.PowerCompliance, 0
TestParameter, Measurement.Aborting.Condition, CONTINUE AT ANY
TestParameter, Measurement.PostOutput.Value, START
TestParameter, Measurement.PostOutput.Retention, OFF
TestParameter, Measurement.Bias.Source, -2.5, 0, 1
TestParameter, Measurement.Bias.Compliance, 0.1, 0.1, 0.1
TestParameter, Measurement.Monitor.Unit, SMU1:HR, SMU2:HR, SMU3:HR
TestParameter, Measurement.Monitor.Adc, HR ADC, HR ADC, HR ADC
TestParameter, Measurement.Monitor.Measurement, Compliance Side, Compliance Side, Compliance Side
TestParameter, Measurement.Monitor.RangingMode, LIMITED, LIMITED, LIMITED
TestParameter, Measurement.Monitor.RangeBoundary, 1nA, 1nA, 1nA
TestParameter, Measurement.Monitor.RangeRating, BY FULL RANGE, BY FULL RANGE, BY FULL RANGE
TestParameter, Measurement.Monitor.RangeRatingCoeff, 50, 50, 50
TestParameter, Measurement.Timing.Hold, 0
TestParameter, Measurement.Timing.Delay, 0
TestParameter, Measurement.Adc.HighSpeed.Mode, AUTO
TestParameter, Measurement.Adc.HighSpeed.Coeff, 1
TestParameter, Measurement.Adc.HighResolution.AutoZero, OFF
TestParameter, Measurement.Adc.HighResolution.Mode, AUTO
TestParameter, Measurement.Adc.HighResolution.Coeff, 3
TestParameter, Measurement.WaitTime.Source.Coeff, 1
TestParameter, Measurement.WaitTime.Source.Offset, 0
TestParameter, Measurement.WaitTime.Monitor.Coeff, 1
TestParameter, Measurement.WaitTime.Monitor.Offset, 0
TestParameter, Function.User.Name, absIg, absId, absIs
TestParameter, Function.User.Unit, A, A, A
TestParameter, Function.User.Definition, abs(Ig), abs(Id), abs(Is)
TestParameter, Output.Graph.Enabled, true
TestParameter, Output.Graph.AutoScaling, false
TestParameter, Output.Graph.XAxis.Data, Vg
TestParameter, Output.Graph.XAxis.Scale, Linear
TestParameter, Output.Graph.XAxis.Left, -2.5
TestParameter, Output.Graph.XAxis.Right, 3.5
TestParameter, Output.Graph.XAxis.RunTimeAutoScale, true
TestParameter, Output.Graph.YAxis.Data, absIg, absId, absIs
TestParameter, Output.Graph.YAxis.Scale, Log, Log, Log
TestParameter, Output.Graph.YAxis.Bottom, 0, 0, 0
TestParameter, Output.Graph.YAxis.Top, 1, 1, 1
TestParameter, Output.Graph.YAxis.Group, Group 1, Group 1, Group 1
TestParameter, Output.Graph.YAxis.RunTimeAutoScale, true, true, true
TestParameter, Output.List.Data, Vg, Vd, Ig, Id, Is, absIg, absId, absIs
TestParameter, AutoAnalysis.Interpolation, false
TestParameter, AutoAnalysis.Var2StepCount, 1
TestParameter, AutoAnalysis.Var2StepScript, 
TestParameter, AutoAnalysis.Line1.Enabled, false
TestParameter, AutoAnalysis.Line1.Type, 1
TestParameter, AutoAnalysis.Line1.Fix, True
TestParameter, AutoAnalysis.Line1.YAxis, 0
TestParameter, AutoAnalysis.Line1.Point1.Type, 0
TestParameter, AutoAnalysis.Line1.Point1.XY.X, 
TestParameter, AutoAnalysis.Line1.Point1.XY.Y, 
TestParameter, AutoAnalysis.Line1.Point1.Data.Var, 
TestParameter, AutoAnalysis.Line1.Point1.Data.Condition, 
TestParameter, AutoAnalysis.Line1.Point1.Data.Start, false
TestParameter, AutoAnalysis.Line1.Point1.Data.StartVar, 
TestParameter, AutoAnalysis.Line1.Point1.Data.StartCondition, 
TestParameter, AutoAnalysis.Line1.Point2.Type, 0
TestParameter, AutoAnalysis.Line1.Point2.XY.X, 
TestParameter, AutoAnalysis.Line1.Point2.XY.Y, 
TestParameter, AutoAnalysis.Line1.Point2.Data.Var, 
TestParameter, AutoAnalysis.Line1.Point2.Data.Condition, 
TestParameter, AutoAnalysis.Line1.Point2.Data.Start, false
TestParameter, AutoAnalysis.Line1.Point2.Data.StartVar, 
TestParameter, AutoAnalysis.Line1.Point2.Data.StartCondition, 
TestParameter, AutoAnalysis.Line1.GradientExpr, 0
TestParameter, AutoAnalysis.Line2.Enabled, false
TestParameter, AutoAnalysis.Line2.Type, 1
TestParameter, AutoAnalysis.Line2.Fix, True
TestParameter, AutoAnalysis.Line2.YAxis, 0
TestParameter, AutoAnalysis.Line2.Point1.Type, 0
TestParameter, AutoAnalysis.Line2.Point1.XY.X, 
TestParameter, AutoAnalysis.Line2.Point1.XY.Y, 
TestParameter, AutoAnalysis.Line2.Point1.Data.Var, 
TestParameter, AutoAnalysis.Line2.Point1.Data.Condition, 
TestParameter, AutoAnalysis.Line2.Point1.Data.Start, false
TestParameter, AutoAnalysis.Line2.Point1.Data.StartVar, 
TestParameter, AutoAnalysis.Line2.Point1.Data.StartCondition, 
TestParameter, AutoAnalysis.Line2.Point2.Type, 0
TestParameter, AutoAnalysis.Line2.Point2.XY.X, 
TestParameter, AutoAnalysis.Line2.Point2.XY.Y, 
TestParameter, AutoAnalysis.Line2.Point2.Data.Var, 
TestParameter, AutoAnalysis.Line2.Point2.Data.Condition, 
TestParameter, AutoAnalysis.Line2.Point2.Data.Start, false
TestParameter, AutoAnalysis.Line2.Point2.Data.StartVar, 
TestParameter, AutoAnalysis.Line2.Point2.Data.StartCondition, 
TestParameter, AutoAnalysis.Line2.GradientExpr, 0
TestParameter, AutoAnalysis.Marker.Enabled, false
TestParameter, AutoAnalysis.Marker.Data.Var, 
TestParameter, AutoAnalysis.Marker.Data.Condition, 
TestParameter, AutoAnalysis.Marker.Data.Start, false
TestParameter, AutoAnalysis.Marker.Data.StartVar, 
TestParameter, AutoAnalysis.Marker.Data.StartCondition, 
MetaData, TestRecord.EntryPoint, true
MetaData, TestRecord.RecordTime, 04/07/2025 16:30:59
MetaData, TestRecord.TestTarget, BGAF 3_1 303 W36-L8
MetaData, TestRecord.IterationIndex, 18
MetaData, TestRecord.Preservation, true
MetaData, TestRecord.Flag, 
MetaData, TestRecord.Remarks, 
MetaData, TestRecord.LinkKey, b083a573-7fa3-416f-8707-068e46fa01c2
MetaData, TestRecord.Parameters, 
Dimension1, 1302, 1302, 1302, 1302, 1302, 1302, 1302, 1302
Dimension2, 1, 1, 1, 1, 1, 1, 1, 1
DataName, Vg, Vd, Ig, Is, Id, absIg, absId, absIs
DataValue, -2.5, 1, -1.0669000000000001E-10, 1E-13, 1.1057000000000001E-10, 1.0669000000000001E-10, 1.1057000000000001E-10, 1E-13
DataValue, -2.4907500000000002, 1, -1.0628000000000001E-10, -4.2000000000000003E-13, 1.0835E-10, 1.0628000000000001E-10, 1.0835E-10, 4.2000000000000003E-13
DataValue, -2.4815, 1, -1.0364E-10, -4.9E-13, 1.0390000000000001E-10, 1.0364E-10, 1.0390000000000001E-10, 4.9E-13
DataValue, -2.47225, 1, -1.0077E-10, 4.0000000000000006E-14, 1.024E-10, 1.0077E-10, 1.024E-10, 4.0000000000000006E-14
DataValue, -2.463, 1, -9.8170000000000008E-11, 8.0000000000000013E-14, 9.8440000000000011E-11, 9.8170000000000008E-11, 9.8440000000000011E-11, 8.0000000000000013E-14
DataValue, -2.45375, 1, -9.468E-11, 7.100000000000001E-13, 9.4530000000000009E-11, 9.468E-11, 9.4530000000000009E-11, 7.100000000000001E-13
DataValue, -2.4445, 1, -9.1930000000000012E-11, 6.7000000000000007E-13, 9.175E-11, 9.1930000000000012E-11, 9.175E-11, 6.7000000000000007E-13
DataValue, -2.4355, 1, -9.148E-11, 3.5E-13, 8.8600000000000009E-11, 9.148E-11, 8.8600000000000009E-11, 3.5E-13
DataValue, -2.42625, 1, -8.8220000000000007E-11, 3.9000000000000005E-13, 8.802000000000001E-11, 8.8220000000000007E-11, 8.802000000000001E-11, 3.9000000000000005E-13
DataValue, -2.4170000000000003, 1, -8.539E-11, 7.7000000000000005E-13, 8.5010000000000012E-11, 8.539E-11, 8.5010000000000012E-11, 7.7000000000000005E-13
DataValue, -2.40775, 1, -8.343E-11, -6.400000000000001E-13, 8.371E-11, 8.343E-11, 8.371E-11, 6.400000000000001E-13
DataValue, -2.3985, 1, -8.07E-11, -5.3000000000000006E-13, 7.858E-11, 8.07E-11, 7.858E-11, 5.3000000000000006E-13
DataValue, -2.38925, 1, -7.957E-11, -4.5000000000000005E-13, 7.585E-11, 7.957E-11, 7.585E-11, 4.5000000000000005E-13
DataValue, -2.38, 1, -7.711E-11, -5.1E-13, 7.403E-11, 7.711E-11, 7.403E-11, 5.1E-13
DataValue, -2.37075, 1, -7.5450000000000008E-11, 1.9000000000000002E-13, 7.3330000000000007E-11, 7.5450000000000008E-11, 7.3330000000000007E-11, 1.9000000000000002E-13
DataValue, -2.3615, 1, -7.143E-11, -1.27E-12, 6.962E-11, 7.143E-11, 6.962E-11, 1.27E-12
DataValue, -2.35225, 1, -6.9550000000000008E-11, 3.1000000000000004E-13, 6.703E-11, 6.9550000000000008E-11, 6.703E-11, 3.1000000000000004E-13
DataValue, -2.343, 1, -6.733E-11, -4.6000000000000006E-13, 6.4230000000000007E-11, 6.733E-11, 6.4230000000000007E-11, 4.6000000000000006E-13
DataValue, -2.33375, 1, -6.513E-11, -7.100000000000001E-13, 6.259E-11, 6.513E-11, 6.259E-11, 7.100000000000001E-13
DataValue, -2.3245, 1, -6.2050000000000008E-11, 2.0000000000000003E-14, 6.019E-11, 6.2050000000000008E-11, 6.019E-11, 2.0000000000000003E-14
DataValue, -2.3155, 1, -6.0200000000000009E-11, -1.4E-13, 5.829E-11, 6.0200000000000009E-11, 5.829E-11, 1.4E-13
DataValue, -2.30625, 1, -5.769E-11, 5.1E-13, 5.6980000000000006E-11, 5.769E-11, 5.6980000000000006E-11, 5.1E-13
DataValue, -2.297, 1, -5.6580000000000006E-11, 1.2000000000000001E-12, 5.5340000000000006E-11, 5.6580000000000006E-11, 5.5340000000000006E-11, 1.2000000000000001E-12
DataValue, -2.28775, 1, -5.2830000000000007E-11, 3.6000000000000003E-13, 5.3580000000000004E-11, 5.2830000000000007E-11, 5.3580000000000004E-11, 3.6000000000000003E-13
DataValue, -2.2785, 1, -5.1300000000000006E-11, 4.5000000000000005E-13, 5.309E-11, 5.1300000000000006E-11, 5.309E-11, 4.5000000000000005E-13
DataValue, -2.26925, 1, -4.8890000000000005E-11, 2E-13, 5.1870000000000004E-11, 4.8890000000000005E-11, 5.1870000000000004E-11, 2E-13
DataValue, -2.2600000000000002, 1, -4.6970000000000007E-11, 7E-13, 4.9810000000000007E-11, 4.6970000000000007E-11, 4.9810000000000007E-11, 7E-13
DataValue, -2.25075, 1, -4.5280000000000004E-11, -1.5000000000000002E-13, 4.673E-11, 4.5280000000000004E-11, 4.673E-11, 1.5000000000000002E-13
DataValue, -2.2415, 1, -4.384E-11, -3.1000000000000004E-13, 4.661E-11, 4.384E-11, 4.661E-11, 3.1000000000000004E-13
DataValue, -2.23225, 1, -4.236E-11, -2.8E-13, 4.465E-11, 4.236E-11, 4.465E-11, 2.8E-13
DataValue, -2.223, 1, -4.049E-11, -2.5E-13, 4.3320000000000005E-11, 4.049E-11, 4.3320000000000005E-11, 2.5E-13
DataValue, -2.21375, 1, -3.8510000000000005E-11, -5.7E-13, 4.1820000000000004E-11, 3.8510000000000005E-11, 4.1820000000000004E-11, 5.7E-13
DataValue, -2.2045, 1, -3.8550000000000005E-11, -1.2500000000000001E-12, 4.104E-11, 3.8550000000000005E-11, 4.104E-11, 1.2500000000000001E-12
DataValue, -2.1955, 1, -3.7E-11, -7.4000000000000008E-13, 3.9860000000000005E-11, 3.7E-11, 3.9860000000000005E-11, 7.4000000000000008E-13
DataValue, -2.1862500000000002, 1, -3.7060000000000006E-11, -4.7E-13, 3.7790000000000006E-11, 3.7060000000000006E-11, 3.7790000000000006E-11, 4.7E-13
DataValue, -2.177, 1, -3.5780000000000005E-11, 2.3000000000000003E-13, 3.6720000000000003E-11, 3.5780000000000005E-11, 3.6720000000000003E-11, 2.3000000000000003E-13
DataValue, -2.16775, 1, -3.4610000000000004E-11, -1.5000000000000002E-13, 3.486E-11, 3.4610000000000004E-11, 3.486E-11, 1.5000000000000002E-13
DataValue, -2.1585, 1, -3.325E-11, 6.2000000000000008E-13, 3.442E-11, 3.325E-11, 3.442E-11, 6.2000000000000008E-13
DataValue, -2.14925, 1, -3.358E-11, 1.2500000000000001E-12, 3.3300000000000004E-11, 3.358E-11, 3.3300000000000004E-11, 1.2500000000000001E-12
DataValue, -2.14, 1, -3.197E-11, 4E-13, 3.122E-11, 3.197E-11, 3.122E-11, 4E-13
DataValue, -2.13075, 1, -3.186E-11, -2.6E-13, 3.103E-11, 3.186E-11, 3.103E-11, 2.6E-13
DataValue, -2.1215, 1, -3.14E-11, 1.5000000000000002E-13, 2.8630000000000002E-11, 3.14E-11, 2.8630000000000002E-11, 1.5000000000000002E-13
DataValue, -2.11225, 1, -3.0650000000000005E-11, 6.3E-13, 3.168E-11, 3.0650000000000005E-11, 3.168E-11, 6.3E-13
DataValue, -2.103, 1, -3.06E-11, -1.4E-13, 2.921E-11, 3.06E-11, 2.921E-11, 1.4E-13
DataValue, -2.09375, 1, -2.9850000000000005E-11, -3.0000000000000005E-14, 2.8740000000000002E-11, 2.9850000000000005E-11, 2.8740000000000002E-11, 3.0000000000000005E-14
DataValue, -2.0845000000000002, 1, -2.8140000000000002E-11, -2.0000000000000003E-14, 2.7470000000000003E-11, 2.8140000000000002E-11, 2.7470000000000003E-11, 2.0000000000000003E-14
DataValue, -2.0755, 1, -2.839E-11, -8.4000000000000006E-13, 2.7120000000000002E-11, 2.839E-11, 2.7120000000000002E-11, 8.4000000000000006E-13
DataValue, -2.06625, 1, -2.7650000000000003E-11, -4E-13, 2.722E-11, 2.7650000000000003E-11, 2.722E-11, 4E-13
DataValue, -2.057, 1, -2.6560000000000003E-11, -9.7000000000000011E-13, 2.4540000000000003E-11, 2.6560000000000003E-11, 2.4540000000000003E-11, 9.7000000000000011E-13
DataValue, -2.04775, 1, -2.5080000000000002E-11, -1.5000000000000002E-13, 2.2040000000000002E-11, 2.5080000000000002E-11, 2.2040000000000002E-11, 1.5000000000000002E-13
DataValue, -2.0385, 1, -2.4280000000000002E-11, -3.6000000000000003E-13, 2.223E-11, 2.4280000000000002E-11, 2.223E-11, 3.6000000000000003E-13
DataValue, -2.02925, 1, -2.4E-11, -8E-13, 2.152E-11, 2.4E-11, 2.152E-11, 8E-13
DataValue, -2.02, 1, -2.189E-11, 2.5E-13, 2.0510000000000002E-11, 2.189E-11, 2.0510000000000002E-11, 2.5E-13
DataValue, -2.0107500000000003, 1, -2.063E-11, -1.0000000000000002E-14, 1.945E-11, 2.063E-11, 1.945E-11, 1.0000000000000002E-14
DataValue, -2.0015, 1, -1.956E-11, -5.7E-13, 2.005E-11, 1.956E-11, 2.005E-11, 5.7E-13
DataValue, -1.99225, 1, -1.897E-11, 8.2E-13, 1.672E-11, 1.897E-11, 1.672E-11, 8.2E-13
DataValue, -1.983, 1, -1.8070000000000002E-11, -1.5000000000000002E-13, 1.681E-11, 1.8070000000000002E-11, 1.681E-11, 1.5000000000000002E-13
DataValue, -1.9737500000000001, 1, -1.651E-11, 2E-13, 1.6540000000000002E-11, 1.651E-11, 1.6540000000000002E-11, 2E-13
DataValue, -1.9645000000000001, 1, -1.5430000000000002E-11, -1.4E-13, 1.737E-11, 1.5430000000000002E-11, 1.737E-11, 1.4E-13
DataValue, -1.9555, 1, -1.4260000000000001E-11, -4.6000000000000006E-13, 1.706E-11, 1.4260000000000001E-11, 1.706E-11, 4.6000000000000006E-13
DataValue, -1.94625, 1, -1.371E-11, 2.1000000000000001E-13, 1.6980000000000002E-11, 1.371E-11, 1.6980000000000002E-11, 2.1000000000000001E-13
DataValue, -1.937, 1, -1.3180000000000002E-11, 2.5E-13, 1.624E-11, 1.3180000000000002E-11, 1.624E-11, 2.5E-13
DataValue, -1.92775, 1, -1.272E-11, -9.2000000000000012E-13, 1.542E-11, 1.272E-11, 1.542E-11, 9.2000000000000012E-13
DataValue, -1.9185, 1, -1.158E-11, -1.14E-12, 1.551E-11, 1.158E-11, 1.551E-11, 1.14E-12
DataValue, -1.9092500000000001, 1, -1.191E-11, -4.1E-13, 1.2550000000000001E-11, 1.191E-11, 1.2550000000000001E-11, 4.1E-13
DataValue, -1.9000000000000001, 1, -1.137E-11, -8.0000000000000013E-14, 1.3450000000000001E-11, 1.137E-11, 1.3450000000000001E-11, 8.0000000000000013E-14
DataValue, -1.89075, 1, -1.097E-11, -7.8000000000000011E-13, 1.381E-11, 1.097E-11, 1.381E-11, 7.8000000000000011E-13
DataValue, -1.8815, 1, -9.94E-12, -9.4E-13, 1.34E-11, 9.94E-12, 1.34E-11, 9.4E-13
DataValue, -1.87225, 1, -1.008E-11, -7E-14, 1.2440000000000001E-11, 1.008E-11, 1.2440000000000001E-11, 7E-14
DataValue, -1.863, 1, -1.039E-11, -2.4000000000000004E-13, 1.1970000000000002E-11, 1.039E-11, 1.1970000000000002E-11, 2.4000000000000004E-13
DataValue, -1.85375, 1, -1.0740000000000002E-11, -1.4E-13, 1.0900000000000001E-11, 1.0740000000000002E-11, 1.0900000000000001E-11, 1.4E-13
DataValue, -1.8445, 1, -1.0020000000000001E-11, 4.2000000000000003E-13, 1.1030000000000001E-11, 1.0020000000000001E-11, 1.1030000000000001E-11, 4.2000000000000003E-13
DataValue, -1.8355000000000001, 1, -1.057E-11, 7.3E-13, 1.058E-11, 1.057E-11, 1.058E-11, 7.3E-13
DataValue, -1.82625, 1, -1.0700000000000001E-11, 7E-13, 1.035E-11, 1.0700000000000001E-11, 1.035E-11, 7E-13
DataValue, -1.817, 1, -1.059E-11, 2.2000000000000002E-13, 1.0130000000000002E-11, 1.059E-11, 1.0130000000000002E-11, 2.2000000000000002E-13
DataValue, -1.80775, 1, -1.1940000000000001E-11, 1.1900000000000002E-12, 1.12E-11, 1.1940000000000001E-11, 1.12E-11, 1.1900000000000002E-12
DataValue, -1.7985, 1, -1.168E-11, -1.3E-13, 1.2220000000000001E-11, 1.168E-11, 1.2220000000000001E-11, 1.3E-13
DataValue, -1.78925, 1, -1.1050000000000002E-11, 9.000000000000001E-13, 1.14E-11, 1.1050000000000002E-11, 1.14E-11, 9.000000000000001E-13
DataValue, -1.78, 1, -1.1320000000000001E-11, -4.8000000000000008E-13, 1.075E-11, 1.1320000000000001E-11, 1.075E-11, 4.8000000000000008E-13
DataValue, -1.77075, 1, -1.0910000000000001E-11, -6.1E-13, 9.64E-12, 1.0910000000000001E-11, 9.64E-12, 6.1E-13
DataValue, -1.7615, 1, -1.117E-11, -1.2000000000000002E-13, 9.3800000000000008E-12, 1.117E-11, 9.3800000000000008E-12, 1.2000000000000002E-13
DataValue, -1.75225, 1, -1.14E-11, -1.23E-12, 1.008E-11, 1.14E-11, 1.008E-11, 1.23E-12
DataValue, -1.743, 1, -1.007E-11, 2.4000000000000004E-13, 9.390000000000001E-12, 1.007E-11, 9.390000000000001E-12, 2.4000000000000004E-13
DataValue, -1.7337500000000001, 1, -1.0800000000000001E-11, -8.300000000000001E-13, 9.16E-12, 1.0800000000000001E-11, 9.16E-12, 8.300000000000001E-13
DataValue, -1.7245000000000001, 1, -9.900000000000001E-12, -4.3000000000000004E-13, 7.41E-12, 9.900000000000001E-12, 7.41E-12, 4.3000000000000004E-13
DataValue, -1.7155, 1, -9.12E-12, -3.1000000000000004E-13, 7.0900000000000007E-12, 9.12E-12, 7.0900000000000007E-12, 3.1000000000000004E-13
DataValue, -1.70625, 1, -8.9800000000000009E-12, 1.6000000000000003E-13, 5.4200000000000007E-12, 8.9800000000000009E-12, 5.4200000000000007E-12, 1.6000000000000003E-13
DataValue, -1.697, 1, -7.6800000000000012E-12, -2.6E-13, 4.41E-12, 7.6800000000000012E-12, 4.41E-12, 2.6E-13
DataValue, -1.68775, 1, -7.26E-12, -1.0000000000000002E-14, 2.7600000000000004E-12, 7.26E-12, 2.7600000000000004E-12, 1.0000000000000002E-14
DataValue, -1.6785, 1, -6.5300000000000007E-12, 1.5000000000000002E-13, 4.82E-12, 6.5300000000000007E-12, 4.82E-12, 1.5000000000000002E-13
DataValue, -1.6692500000000001, 1, -6.3300000000000007E-12, 4.2000000000000003E-13, 5.4500000000000004E-12, 6.3300000000000007E-12, 5.4500000000000004E-12, 4.2000000000000003E-13
DataValue, -1.6600000000000001, 1, -5.6600000000000005E-12, 5.5000000000000008E-13, 5.23E-12, 5.6600000000000005E-12, 5.23E-12, 5.5000000000000008E-13
DataValue, -1.65075, 1, -4.7600000000000007E-12, 3.5E-13, 6.1700000000000006E-12, 4.7600000000000007E-12, 6.1700000000000006E-12, 3.5E-13
DataValue, -1.6415, 1, -4.1000000000000007E-12, -1.2000000000000002E-13, 6.2200000000000006E-12, 4.1000000000000007E-12, 6.2200000000000006E-12, 1.2000000000000002E-13
DataValue, -1.63225, 1, -3.1900000000000003E-12, -3.0000000000000003E-13, 6.2400000000000009E-12, 3.1900000000000003E-12, 6.2400000000000009E-12, 3.0000000000000003E-13
DataValue, -1.623, 1, -2.7600000000000004E-12, 4.2000000000000003E-13, 5.48E-12, 2.7600000000000004E-12, 5.48E-12, 4.2000000000000003E-13
DataValue, -1.61375, 1, -2.8800000000000002E-12, 0, 5.5700000000000007E-12, 2.8800000000000002E-12, 5.5700000000000007E-12, 0
DataValue, -1.6045, 1, -2.19E-12, 6.1E-13, 5.1200000000000008E-12, 2.19E-12, 5.1200000000000008E-12, 6.1E-13
DataValue, -1.5955000000000001, 1, -2.18E-12, 6.6E-13, 4.9500000000000005E-12, 2.18E-12, 4.9500000000000005E-12, 6.6E-13
DataValue, -1.58625, 1, -2.19E-12, -1.37E-12, 4.6000000000000006E-12, 2.19E-12, 4.6000000000000006E-12, 1.37E-12
DataValue, -1.577, 1, -1.6200000000000002E-12, -9.9E-13, 3.8800000000000004E-12, 1.6200000000000002E-12, 3.8800000000000004E-12, 9.9E-13
