
SetupTitle, Vd=1V(-2.5,3.5)
PrimitiveTest, I/V Sweep
TestParameter, Context.MainFrame, B1500A
TestParameter, Channel.UnitType, SMU, SMU, SMU
TestParameter, Channel.Unit, SMU1:HR, SMU2:HR, SMU3:HR
TestParameter, Channel.IName, Ig, Is, Id
TestParameter, Channel.VName, Vg, Vs, Vd
TestParameter, Channel.Mode, V, V, V
TestParameter, Channel.Func, VAR1, CONST, CONST
TestParameter, Channel.Index, 
TestParameter, Channel.Time, 
TestParameter, Measurement.Port.Unit, SMU1:HR, SMU2:HR, SMU3:HR
TestParameter, Measurement.Port.SeriesResistor, NONE, NONE, NONE
TestParameter, Measurement.Port.Filter, ON, ON, ON
TestParameter, Measurement.Port.OutputVoltageComparison, 0, 0, 0
TestParameter, Measurement.Primary.Locus, Double
TestParameter, Measurement.Primary.Scale, LINEAR
TestParameter, Measurement.Primary.Start, -2.5
TestParameter, Measurement.Primary.Stop, 3.5
TestParameter, Measurement.Primary.Step, 0.00925
TestParameter, Measurement.Primary.Compliance, 0.1
TestParameter, Measurement.Primary.PowerCompliance, 0
TestParameter, Measurement.Aborting.Condition, CONTINUE AT ANY
TestParameter, Measurement.PostOutput.Value, START
TestParameter, Measurement.PostOutput.Retention, OFF
TestParameter, Measurement.Bias.Source, -2.5, 0, 1
TestParameter, Measurement.Bias.Compliance, 0.1, 0.1, 0.1
TestParameter, Measurement.Monitor.Unit, SMU1:HR, SMU2:HR, SMU3:HR
TestParameter, Measurement.Monitor.Adc, HR ADC, HR ADC, HR ADC
TestParameter, Measurement.Monitor.Measurement, Compliance Side, Compliance Side, Compliance Side
TestParameter, Measurement.Monitor.RangingMode, LIMITED, LIMITED, LIMITED
TestParameter, Measurement.Monitor.RangeBoundary, 1nA, 1nA, 1nA
TestParameter, Measurement.Monitor.RangeRating, BY FULL RANGE, BY FULL RANGE, BY FULL RANGE
TestParameter, Measurement.Monitor.RangeRatingCoeff, 50, 50, 50
TestParameter, Measurement.Timing.Hold, 0
TestParameter, Measurement.Timing.Delay, 0
TestParameter, Measurement.Adc.HighSpeed.Mode, AUTO
TestParameter, Measurement.Adc.HighSpeed.Coeff, 1
TestParameter, Measurement.Adc.HighResolution.AutoZero, OFF
TestParameter, Measurement.Adc.HighResolution.Mode, AUTO
TestParameter, Measurement.Adc.HighResolution.Coeff, 3
TestParameter, Measurement.WaitTime.Source.Coeff, 1
TestParameter, Measurement.WaitTime.Source.Offset, 0
TestParameter, Measurement.WaitTime.Monitor.Coeff, 1
TestParameter, Measurement.WaitTime.Monitor.Offset, 0
TestParameter, Function.User.Name, absIg, absId, absIs
TestParameter, Function.User.Unit, A, A, A
TestParameter, Function.User.Definition, abs(Ig), abs(Id), abs(Is)
TestParameter, Output.Graph.Enabled, true
TestParameter, Output.Graph.AutoScaling, false
TestParameter, Output.Graph.XAxis.Data, Vg
TestParameter, Output.Graph.XAxis.Scale, Linear
TestParameter, Output.Graph.XAxis.Left, -2.5
TestParameter, Output.Graph.XAxis.Right, 3.5
TestParameter, Output.Graph.XAxis.RunTimeAutoScale, true
TestParameter, Output.Graph.YAxis.Data, absIg, absId, absIs
TestParameter, Output.Graph.YAxis.Scale, Log, Log, Log
TestParameter, Output.Graph.YAxis.Bottom, 0, 0, 0
TestParameter, Output.Graph.YAxis.Top, 1, 1, 1
TestParameter, Output.Graph.YAxis.Group, Group 1, Group 1, Group 1
TestParameter, Output.Graph.YAxis.RunTimeAutoScale, true, true, true
TestParameter, Output.List.Data, Vg, Vd, Ig, Id, Is, absIg, absId, absIs
TestParameter, AutoAnalysis.Interpolation, false
TestParameter, AutoAnalysis.Var2StepCount, 1
TestParameter, AutoAnalysis.Var2StepScript, 
TestParameter, AutoAnalysis.Line1.Enabled, false
TestParameter, AutoAnalysis.Line1.Type, 1
TestParameter, AutoAnalysis.Line1.Fix, True
TestParameter, AutoAnalysis.Line1.YAxis, 0
TestParameter, AutoAnalysis.Line1.Point1.Type, 0
TestParameter, AutoAnalysis.Line1.Point1.XY.X, 
TestParameter, AutoAnalysis.Line1.Point1.XY.Y, 
TestParameter, AutoAnalysis.Line1.Point1.Data.Var, 
TestParameter, AutoAnalysis.Line1.Point1.Data.Condition, 
TestParameter, AutoAnalysis.Line1.Point1.Data.Start, false
TestParameter, AutoAnalysis.Line1.Point1.Data.StartVar, 
TestParameter, AutoAnalysis.Line1.Point1.Data.StartCondition, 
TestParameter, AutoAnalysis.Line1.Point2.Type, 0
TestParameter, AutoAnalysis.Line1.Point2.XY.X, 
TestParameter, AutoAnalysis.Line1.Point2.XY.Y, 
TestParameter, AutoAnalysis.Line1.Point2.Data.Var, 
TestParameter, AutoAnalysis.Line1.Point2.Data.Condition, 
TestParameter, AutoAnalysis.Line1.Point2.Data.Start, false
TestParameter, AutoAnalysis.Line1.Point2.Data.StartVar, 
TestParameter, AutoAnalysis.Line1.Point2.Data.StartCondition, 
TestParameter, AutoAnalysis.Line1.GradientExpr, 0
TestParameter, AutoAnalysis.Line2.Enabled, false
TestParameter, AutoAnalysis.Line2.Type, 1
TestParameter, AutoAnalysis.Line2.Fix, True
TestParameter, AutoAnalysis.Line2.YAxis, 0
TestParameter, AutoAnalysis.Line2.Point1.Type, 0
TestParameter, AutoAnalysis.Line2.Point1.XY.X, 
TestParameter, AutoAnalysis.Line2.Point1.XY.Y, 
TestParameter, AutoAnalysis.Line2.Point1.Data.Var, 
TestParameter, AutoAnalysis.Line2.Point1.Data.Condition, 
TestParameter, AutoAnalysis.Line2.Point1.Data.Start, false
TestParameter, AutoAnalysis.Line2.Point1.Data.StartVar, 
TestParameter, AutoAnalysis.Line2.Point1.Data.StartCondition, 
TestParameter, AutoAnalysis.Line2.Point2.Type, 0
TestParameter, AutoAnalysis.Line2.Point2.XY.X, 
TestParameter, AutoAnalysis.Line2.Point2.XY.Y, 
TestParameter, AutoAnalysis.Line2.Point2.Data.Var, 
TestParameter, AutoAnalysis.Line2.Point2.Data.Condition, 
TestParameter, AutoAnalysis.Line2.Point2.Data.Start, false
TestParameter, AutoAnalysis.Line2.Point2.Data.StartVar, 
TestParameter, AutoAnalysis.Line2.Point2.Data.StartCondition, 
TestParameter, AutoAnalysis.Line2.GradientExpr, 0
TestParameter, AutoAnalysis.Marker.Enabled, false
TestParameter, AutoAnalysis.Marker.Data.Var, 
TestParameter, AutoAnalysis.Marker.Data.Condition, 
TestParameter, AutoAnalysis.Marker.Data.Start, false
TestParameter, AutoAnalysis.Marker.Data.StartVar, 
TestParameter, AutoAnalysis.Marker.Data.StartCondition, 
MetaData, TestRecord.EntryPoint, true
MetaData, TestRecord.RecordTime, 04/07/2025 16:29:03
MetaData, TestRecord.TestTarget, BGAF 3_1 303 W36-L6
MetaData, TestRecord.IterationIndex, 17
MetaData, TestRecord.Preservation, true
MetaData, TestRecord.Flag, 
MetaData, TestRecord.Remarks, 
MetaData, TestRecord.LinkKey, 09f5c23b-149a-4b4b-9b66-d1c2a50cdfd5
MetaData, TestRecord.Parameters, 
Dimension1, 1302, 1302, 1302, 1302, 1302, 1302, 1302, 1302
Dimension2, 1, 1, 1, 1, 1, 1, 1, 1
DataName, Vg, Vd, Ig, Is, Id, absIg, absId, absIs
DataValue, -2.5, 1, -1.4618E-10, 7.9000000000000007E-13, 1.5405E-10, 1.4618E-10, 1.5405E-10, 7.9000000000000007E-13
DataValue, -2.4907500000000002, 1, -1.4851E-10, -5.6E-13, 1.4691E-10, 1.4851E-10, 1.4691E-10, 5.6E-13
DataValue, -2.4815, 1, -1.4388E-10, 2.1000000000000001E-13, 1.4367E-10, 1.4388E-10, 1.4367E-10, 2.1000000000000001E-13
DataValue, -2.47225, 1, -1.3879000000000002E-10, 4E-13, 1.3989000000000002E-10, 1.3879000000000002E-10, 1.3989000000000002E-10, 4E-13
DataValue, -2.463, 1, -1.3648E-10, 6.3E-13, 1.3707E-10, 1.3648E-10, 1.3707E-10, 6.3E-13
DataValue, -2.45375, 1, -1.3204000000000002E-10, 8.4000000000000006E-13, 1.323E-10, 1.3204000000000002E-10, 1.323E-10, 8.4000000000000006E-13
DataValue, -2.4445, 1, -1.2703E-10, 3.0000000000000005E-14, 1.2903000000000002E-10, 1.2703E-10, 1.2903000000000002E-10, 3.0000000000000005E-14
DataValue, -2.4355, 1, -1.2513E-10, 1.0500000000000002E-12, 1.2528E-10, 1.2513E-10, 1.2528E-10, 1.0500000000000002E-12
DataValue, -2.42625, 1, -1.1957E-10, -1.1000000000000001E-13, 1.2026E-10, 1.1957E-10, 1.2026E-10, 1.1000000000000001E-13
DataValue, -2.4170000000000003, 1, -1.1676000000000002E-10, -2.6E-13, 1.1834E-10, 1.1676000000000002E-10, 1.1834E-10, 2.6E-13
DataValue, -2.40775, 1, -1.1266000000000002E-10, 7.4000000000000008E-13, 1.1532000000000001E-10, 1.1266000000000002E-10, 1.1532000000000001E-10, 7.4000000000000008E-13
DataValue, -2.3985, 1, -1.0759000000000001E-10, -1.2500000000000001E-12, 1.1060000000000001E-10, 1.0759000000000001E-10, 1.1060000000000001E-10, 1.2500000000000001E-12
DataValue, -2.38925, 1, -1.0438E-10, 5E-13, 1.0732000000000001E-10, 1.0438E-10, 1.0732000000000001E-10, 5E-13
DataValue, -2.38, 1, -1.0124E-10, 9.0000000000000008E-14, 9.9730000000000014E-11, 1.0124E-10, 9.9730000000000014E-11, 9.0000000000000008E-14
DataValue, -2.37075, 1, -9.744E-11, -6.400000000000001E-13, 9.8280000000000009E-11, 9.744E-11, 9.8280000000000009E-11, 6.400000000000001E-13
DataValue, -2.3615, 1, -9.5140000000000007E-11, 2.5E-13, 9.746E-11, 9.5140000000000007E-11, 9.746E-11, 2.5E-13
DataValue, -2.35225, 1, -9.278E-11, -1.0600000000000001E-12, 9.3650000000000007E-11, 9.278E-11, 9.3650000000000007E-11, 1.0600000000000001E-12
DataValue, -2.343, 1, -9.076E-11, -3.9000000000000005E-13, 9.178E-11, 9.076E-11, 9.178E-11, 3.9000000000000005E-13
DataValue, -2.33375, 1, -8.823E-11, -3.1000000000000004E-13, 8.8770000000000007E-11, 8.823E-11, 8.8770000000000007E-11, 3.1000000000000004E-13
DataValue, -2.3245, 1, -8.564E-11, 2.9000000000000003E-13, 8.677E-11, 8.564E-11, 8.677E-11, 2.9000000000000003E-13
DataValue, -2.3155, 1, -8.393E-11, -3.5E-13, 8.495E-11, 8.393E-11, 8.495E-11, 3.5E-13
DataValue, -2.30625, 1, -8.064E-11, 2.3000000000000003E-13, 8.141E-11, 8.064E-11, 8.141E-11, 2.3000000000000003E-13
DataValue, -2.297, 1, -7.893E-11, 5.2E-13, 7.9230000000000007E-11, 7.893E-11, 7.9230000000000007E-11, 5.2E-13
DataValue, -2.28775, 1, -7.717E-11, 1.17E-12, 7.673E-11, 7.717E-11, 7.673E-11, 1.17E-12
DataValue, -2.2785, 1, -7.516E-11, 6.1E-13, 7.4560000000000012E-11, 7.516E-11, 7.4560000000000012E-11, 6.1E-13
DataValue, -2.26925, 1, -7.393000000000001E-11, 4E-13, 7.2990000000000011E-11, 7.393000000000001E-11, 7.2990000000000011E-11, 4E-13
DataValue, -2.2600000000000002, 1, -7.136E-11, -3.0000000000000005E-14, 7.105E-11, 7.136E-11, 7.105E-11, 3.0000000000000005E-14
DataValue, -2.25075, 1, -6.9300000000000009E-11, 2.6E-13, 6.857E-11, 6.9300000000000009E-11, 6.857E-11, 2.6E-13
DataValue, -2.2415, 1, -6.785E-11, 4.0000000000000006E-14, 6.294E-11, 6.785E-11, 6.294E-11, 4.0000000000000006E-14
DataValue, -2.23225, 1, -6.513E-11, -1.04E-12, 6.35E-11, 6.513E-11, 6.35E-11, 1.04E-12
DataValue, -2.223, 1, -6.291E-11, -2.9000000000000003E-13, 6.08E-11, 6.291E-11, 6.08E-11, 2.9000000000000003E-13
DataValue, -2.21375, 1, -6.189E-11, 1.0000000000000002E-14, 5.881E-11, 6.189E-11, 5.881E-11, 1.0000000000000002E-14
DataValue, -2.2045, 1, -5.922E-11, -4.1E-13, 5.6490000000000003E-11, 5.922E-11, 5.6490000000000003E-11, 4.1E-13
DataValue, -2.1955, 1, -5.7520000000000005E-11, -5.2E-13, 5.5440000000000004E-11, 5.7520000000000005E-11, 5.5440000000000004E-11, 5.2E-13
DataValue, -2.1862500000000002, 1, -5.539E-11, -3.0000000000000003E-13, 5.3190000000000006E-11, 5.539E-11, 5.3190000000000006E-11, 3.0000000000000003E-13
DataValue, -2.177, 1, -5.2390000000000006E-11, 2.0000000000000003E-14, 5.1260000000000006E-11, 5.2390000000000006E-11, 5.1260000000000006E-11, 2.0000000000000003E-14
DataValue, -2.16775, 1, -5.091E-11, -6.6E-13, 4.967E-11, 5.091E-11, 4.967E-11, 6.6E-13
DataValue, -2.1585, 1, -4.88E-11, 3.3E-13, 4.8240000000000006E-11, 4.88E-11, 4.8240000000000006E-11, 3.3E-13
DataValue, -2.14925, 1, -4.702E-11, -4.8000000000000008E-13, 4.6750000000000007E-11, 4.702E-11, 4.6750000000000007E-11, 4.8000000000000008E-13
DataValue, -2.14, 1, -4.5620000000000006E-11, -2.74E-12, 4.3970000000000004E-11, 4.5620000000000006E-11, 4.3970000000000004E-11, 2.74E-12
DataValue, -2.13075, 1, -4.428E-11, 5.5000000000000008E-13, 4.2990000000000005E-11, 4.428E-11, 4.2990000000000005E-11, 5.5000000000000008E-13
DataValue, -2.1215, 1, -4.505E-11, 6.3E-13, 4.145E-11, 4.505E-11, 4.145E-11, 6.3E-13
DataValue, -2.11225, 1, -4.1640000000000004E-11, -1.2900000000000002E-12, 4.0920000000000006E-11, 4.1640000000000004E-11, 4.0920000000000006E-11, 1.2900000000000002E-12
DataValue, -2.103, 1, -4.0340000000000006E-11, 1.0100000000000001E-12, 3.9570000000000005E-11, 4.0340000000000006E-11, 3.9570000000000005E-11, 1.0100000000000001E-12
DataValue, -2.09375, 1, -3.889E-11, 3.7000000000000004E-13, 3.914E-11, 3.889E-11, 3.914E-11, 3.7000000000000004E-13
DataValue, -2.0845000000000002, 1, -3.715E-11, -3.0000000000000005E-14, 3.736E-11, 3.715E-11, 3.736E-11, 3.0000000000000005E-14
DataValue, -2.0755, 1, -3.532E-11, 1.45E-12, 3.6540000000000004E-11, 3.532E-11, 3.6540000000000004E-11, 1.45E-12
DataValue, -2.06625, 1, -3.336E-11, 3.9000000000000005E-13, 3.5420000000000005E-11, 3.336E-11, 3.5420000000000005E-11, 3.9000000000000005E-13
DataValue, -2.057, 1, -3.12E-11, -1.6000000000000003E-13, 3.369E-11, 3.12E-11, 3.369E-11, 1.6000000000000003E-13
DataValue, -2.04775, 1, -3.095E-11, 1.07E-12, 3.1700000000000004E-11, 3.095E-11, 3.1700000000000004E-11, 1.07E-12
DataValue, -2.0385, 1, -2.924E-11, -5.4E-13, 3.029E-11, 2.924E-11, 3.029E-11, 5.4E-13
DataValue, -2.02925, 1, -2.8450000000000003E-11, -3.4E-13, 3.154E-11, 2.8450000000000003E-11, 3.154E-11, 3.4E-13
DataValue, -2.02, 1, -2.7160000000000003E-11, -2.9000000000000003E-13, 3.0870000000000006E-11, 2.7160000000000003E-11, 3.0870000000000006E-11, 2.9000000000000003E-13
DataValue, -2.0107500000000003, 1, -2.6080000000000002E-11, -9.000000000000001E-13, 2.7850000000000003E-11, 2.6080000000000002E-11, 2.7850000000000003E-11, 9.000000000000001E-13
DataValue, -2.0015, 1, -2.5320000000000003E-11, -4E-13, 2.8760000000000003E-11, 2.5320000000000003E-11, 2.8760000000000003E-11, 4E-13
DataValue, -1.99225, 1, -2.469E-11, -1.23E-12, 2.793E-11, 2.469E-11, 2.793E-11, 1.23E-12
DataValue, -1.983, 1, -2.436E-11, 1.3E-13, 2.626E-11, 2.436E-11, 2.626E-11, 1.3E-13
DataValue, -1.9737500000000001, 1, -2.3430000000000003E-11, -1E-13, 2.5570000000000002E-11, 2.3430000000000003E-11, 2.5570000000000002E-11, 1E-13
DataValue, -1.9645000000000001, 1, -2.4150000000000002E-11, -1.7E-13, 2.3700000000000003E-11, 2.4150000000000002E-11, 2.3700000000000003E-11, 1.7E-13
DataValue, -1.9555, 1, -2.336E-11, -5.9E-13, 2.351E-11, 2.336E-11, 2.351E-11, 5.9E-13
DataValue, -1.94625, 1, -2.252E-11, -1.14E-12, 2.2350000000000002E-11, 2.252E-11, 2.2350000000000002E-11, 1.14E-12
DataValue, -1.937, 1, -2.2210000000000003E-11, 6.2000000000000008E-13, 2.1310000000000002E-11, 2.2210000000000003E-11, 2.1310000000000002E-11, 6.2000000000000008E-13
DataValue, -1.92775, 1, -2.1260000000000003E-11, 1.02E-12, 2.032E-11, 2.1260000000000003E-11, 2.032E-11, 1.02E-12
DataValue, -1.9185, 1, -2.141E-11, 5.6E-13, 2.0660000000000003E-11, 2.141E-11, 2.0660000000000003E-11, 5.6E-13
DataValue, -1.9092500000000001, 1, -2.1710000000000002E-11, 7.4000000000000008E-13, 1.8440000000000003E-11, 2.1710000000000002E-11, 1.8440000000000003E-11, 7.4000000000000008E-13
DataValue, -1.9000000000000001, 1, -2.105E-11, 0, 2.016E-11, 2.105E-11, 2.016E-11, 0
DataValue, -1.89075, 1, -2.005E-11, 1.9000000000000002E-13, 1.868E-11, 2.005E-11, 1.868E-11, 1.9000000000000002E-13
DataValue, -1.8815, 1, -2.061E-11, 1.6000000000000003E-13, 1.865E-11, 2.061E-11, 1.865E-11, 1.6000000000000003E-13
DataValue, -1.87225, 1, -1.9660000000000003E-11, 1.2000000000000002E-13, 1.8840000000000003E-11, 1.9660000000000003E-11, 1.8840000000000003E-11, 1.2000000000000002E-13
DataValue, -1.863, 1, -1.905E-11, -1.5000000000000002E-13, 1.804E-11, 1.905E-11, 1.804E-11, 1.5000000000000002E-13
DataValue, -1.85375, 1, -1.8620000000000003E-11, -1.9000000000000002E-13, 1.77E-11, 1.8620000000000003E-11, 1.77E-11, 1.9000000000000002E-13
DataValue, -1.8445, 1, -1.786E-11, -3.6000000000000003E-13, 1.6630000000000002E-11, 1.786E-11, 1.6630000000000002E-11, 3.6000000000000003E-13
DataValue, -1.8355000000000001, 1, -1.7470000000000002E-11, -5.4E-13, 1.4450000000000001E-11, 1.7470000000000002E-11, 1.4450000000000001E-11, 5.4E-13
DataValue, -1.82625, 1, -1.6890000000000003E-11, 1.5000000000000002E-13, 1.3990000000000002E-11, 1.6890000000000003E-11, 1.3990000000000002E-11, 1.5000000000000002E-13
DataValue, -1.817, 1, -1.584E-11, -8.0000000000000013E-14, 1.331E-11, 1.584E-11, 1.331E-11, 8.0000000000000013E-14
DataValue, -1.80775, 1, -1.604E-11, -1.2900000000000002E-12, 1.4050000000000001E-11, 1.604E-11, 1.4050000000000001E-11, 1.2900000000000002E-12
DataValue, -1.7985, 1, -1.4740000000000002E-11, -1.7E-13, 1.32E-11, 1.4740000000000002E-11, 1.32E-11, 1.7E-13
DataValue, -1.78925, 1, -1.3480000000000002E-11, 9.0000000000000008E-14, 1.159E-11, 1.3480000000000002E-11, 1.159E-11, 9.0000000000000008E-14
DataValue, -1.78, 1, -1.2370000000000002E-11, -4.1E-13, 1.1320000000000001E-11, 1.2370000000000002E-11, 1.1320000000000001E-11, 4.1E-13
DataValue, -1.77075, 1, -1.1120000000000001E-11, 0, 1.158E-11, 1.1120000000000001E-11, 1.158E-11, 0
DataValue, -1.7615, 1, -1.056E-11, 5.3000000000000006E-13, 1.0830000000000001E-11, 1.056E-11, 1.0830000000000001E-11, 5.3000000000000006E-13
DataValue, -1.75225, 1, -9.9900000000000009E-12, 4.8000000000000008E-13, 1.106E-11, 9.9900000000000009E-12, 1.106E-11, 4.8000000000000008E-13
DataValue, -1.743, 1, -9.1800000000000009E-12, 2.3000000000000003E-13, 1.058E-11, 9.1800000000000009E-12, 1.058E-11, 2.3000000000000003E-13
DataValue, -1.7337500000000001, 1, -9.3200000000000015E-12, -3.0000000000000005E-14, 1.0910000000000001E-11, 9.3200000000000015E-12, 1.0910000000000001E-11, 3.0000000000000005E-14
DataValue, -1.7245000000000001, 1, -8.11E-12, 6.3E-13, 1.1010000000000001E-11, 8.11E-12, 1.1010000000000001E-11, 6.3E-13
DataValue, -1.7155, 1, -7.7E-12, -2.2000000000000002E-13, 1.167E-11, 7.7E-12, 1.167E-11, 2.2000000000000002E-13
DataValue, -1.70625, 1, -6.6E-12, -6.9000000000000009E-13, 1.0210000000000001E-11, 6.6E-12, 1.0210000000000001E-11, 6.9000000000000009E-13
DataValue, -1.697, 1, -6.6E-12, -2.8E-13, 9.3200000000000015E-12, 6.6E-12, 9.3200000000000015E-12, 2.8E-13
DataValue, -1.68775, 1, -6.8300000000000006E-12, -5.4E-13, 8.1800000000000011E-12, 6.8300000000000006E-12, 8.1800000000000011E-12, 5.4E-13
DataValue, -1.6785, 1, -5.7E-12, -4E-13, 9.45E-12, 5.7E-12, 9.45E-12, 4E-13
DataValue, -1.6692500000000001, 1, -6.9400000000000007E-12, -5.1E-13, 8.75E-12, 6.9400000000000007E-12, 8.75E-12, 5.1E-13
DataValue, -1.6600000000000001, 1, -6.1100000000000004E-12, -1.4300000000000002E-12, 8.8800000000000009E-12, 6.1100000000000004E-12, 8.8800000000000009E-12, 1.4300000000000002E-12
DataValue, -1.65075, 1, -6.51E-12, -9.1000000000000016E-13, 7.75E-12, 6.51E-12, 7.75E-12, 9.1000000000000016E-13
DataValue, -1.6415, 1, -6.66E-12, -2.8E-13, 6.91E-12, 6.66E-12, 6.91E-12, 2.8E-13
DataValue, -1.63225, 1, -6.35E-12, -1.7E-13, 6.3800000000000007E-12, 6.35E-12, 6.3800000000000007E-12, 1.7E-13
DataValue, -1.623, 1, -6.6800000000000006E-12, 2E-13, 5.44E-12, 6.6800000000000006E-12, 5.44E-12, 2E-13
DataValue, -1.61375, 1, -6.14E-12, -2.9000000000000003E-13, 3.75E-12, 6.14E-12, 3.75E-12, 2.9000000000000003E-13
DataValue, -1.6045, 1, -7.17E-12, 1.9000000000000002E-13, 6.04E-12, 7.17E-12, 6.04E-12, 1.9000000000000002E-13
DataValue, -1.5955000000000001, 1, -7.35E-12, 6.0000000000000007E-13, 5.69E-12, 7.35E-12, 5.69E-12, 6.0000000000000007E-13
DataValue, -1.58625, 1, -8.06E-12, 3.4E-13, 7.8600000000000008E-12, 8.06E-12, 7.8600000000000008E-12, 3.4E-13
DataValue, -1.577, 1, -6.25E-12, 4.7E-13, 6.2700000000000005E-12, 6.25E-12, 6.2700000000000005E-12, 4.7E-13
DataValue, -1.56775, 1, -7.2800000000000013E-12, 7E-13, 6.2200000000000006E-12, 7.2800000000000013E-12, 6.2200000000000006E-12, 7E-13
DataValue, -1.5585, 1, -7.3700000000000011E-12, 4.8000000000000008E-13, 7.33E-12, 7.3700000000000011E-12, 7.33E-12, 4.8000000000000008E-13
DataValue, -1.54925, 1, -6.71E-12, -2.0000000000000003E-14, 7.7900000000000013E-12, 6.71E-12, 7.7900000000000013E-12, 2.0000000000000003E-14
DataValue, -1.54, 1, -7.22E-12, -2.9000000000000003E-13, 6.26E-12, 7.22E-12, 6.26E-12, 2.9000000000000003E-13
