
SetupTitle, Vd=1V(-2.5,3.5)
PrimitiveTest, I/V Sweep
TestParameter, Context.MainFrame, B1500A
TestParameter, Channel.UnitType, SMU, SMU, SMU
TestParameter, Channel.Unit, SMU1:HR, SMU2:HR, SMU3:HR
TestParameter, Channel.IName, Ig, Is, Id
TestParameter, Channel.VName, Vg, Vs, Vd
TestParameter, Channel.Mode, V, V, V
TestParameter, Channel.Func, VAR1, CONST, CONST
TestParameter, Channel.Index, 
TestParameter, Channel.Time, 
TestParameter, Measurement.Port.Unit, SMU1:HR, SMU2:HR, SMU3:HR
TestParameter, Measurement.Port.SeriesResistor, NONE, NONE, NONE
TestParameter, Measurement.Port.Filter, ON, ON, ON
TestParameter, Measurement.Port.OutputVoltageComparison, 0, 0, 0
TestParameter, Measurement.Primary.Locus, Double
TestParameter, Measurement.Primary.Scale, LINEAR
TestParameter, Measurement.Primary.Start, -2.5
TestParameter, Measurement.Primary.Stop, 3.5
TestParameter, Measurement.Primary.Step, 0.00925
TestParameter, Measurement.Primary.Compliance, 0.1
TestParameter, Measurement.Primary.PowerCompliance, 0
TestParameter, Measurement.Aborting.Condition, CONTINUE AT ANY
TestParameter, Measurement.PostOutput.Value, START
TestParameter, Measurement.PostOutput.Retention, OFF
TestParameter, Measurement.Bias.Source, -2.5, 0, 1
TestParameter, Measurement.Bias.Compliance, 0.1, 0.1, 0.1
TestParameter, Measurement.Monitor.Unit, SMU1:HR, SMU2:HR, SMU3:HR
TestParameter, Measurement.Monitor.Adc, HR ADC, HR ADC, HR ADC
TestParameter, Measurement.Monitor.Measurement, Compliance Side, Compliance Side, Compliance Side
TestParameter, Measurement.Monitor.RangingMode, LIMITED, LIMITED, LIMITED
TestParameter, Measurement.Monitor.RangeBoundary, 1nA, 1nA, 1nA
TestParameter, Measurement.Monitor.RangeRating, BY FULL RANGE, BY FULL RANGE, BY FULL RANGE
TestParameter, Measurement.Monitor.RangeRatingCoeff, 50, 50, 50
TestParameter, Measurement.Timing.Hold, 0
TestParameter, Measurement.Timing.Delay, 0
TestParameter, Measurement.Adc.HighSpeed.Mode, AUTO
TestParameter, Measurement.Adc.HighSpeed.Coeff, 1
TestParameter, Measurement.Adc.HighResolution.AutoZero, OFF
TestParameter, Measurement.Adc.HighResolution.Mode, AUTO
TestParameter, Measurement.Adc.HighResolution.Coeff, 3
TestParameter, Measurement.WaitTime.Source.Coeff, 1
TestParameter, Measurement.WaitTime.Source.Offset, 0
TestParameter, Measurement.WaitTime.Monitor.Coeff, 1
TestParameter, Measurement.WaitTime.Monitor.Offset, 0
TestParameter, Function.User.Name, absIg, absId, absIs
TestParameter, Function.User.Unit, A, A, A
TestParameter, Function.User.Definition, abs(Ig), abs(Id), abs(Is)
TestParameter, Output.Graph.Enabled, true
TestParameter, Output.Graph.AutoScaling, false
TestParameter, Output.Graph.XAxis.Data, Vg
TestParameter, Output.Graph.XAxis.Scale, Linear
TestParameter, Output.Graph.XAxis.Left, -2.5
TestParameter, Output.Graph.XAxis.Right, 3.5
TestParameter, Output.Graph.XAxis.RunTimeAutoScale, true
TestParameter, Output.Graph.YAxis.Data, absIg, absId, absIs
TestParameter, Output.Graph.YAxis.Scale, Log, Log, Log
TestParameter, Output.Graph.YAxis.Bottom, 0, 0, 0
TestParameter, Output.Graph.YAxis.Top, 1, 1, 1
TestParameter, Output.Graph.YAxis.Group, Group 1, Group 1, Group 1
TestParameter, Output.Graph.YAxis.RunTimeAutoScale, true, true, true
TestParameter, Output.List.Data, Vg, Vd, Ig, Id, Is, absIg, absId, absIs
TestParameter, AutoAnalysis.Interpolation, false
TestParameter, AutoAnalysis.Var2StepCount, 1
TestParameter, AutoAnalysis.Var2StepScript, 
TestParameter, AutoAnalysis.Line1.Enabled, false
TestParameter, AutoAnalysis.Line1.Type, 1
TestParameter, AutoAnalysis.Line1.Fix, True
TestParameter, AutoAnalysis.Line1.YAxis, 0
TestParameter, AutoAnalysis.Line1.Point1.Type, 0
TestParameter, AutoAnalysis.Line1.Point1.XY.X, 
TestParameter, AutoAnalysis.Line1.Point1.XY.Y, 
TestParameter, AutoAnalysis.Line1.Point1.Data.Var, 
TestParameter, AutoAnalysis.Line1.Point1.Data.Condition, 
TestParameter, AutoAnalysis.Line1.Point1.Data.Start, false
TestParameter, AutoAnalysis.Line1.Point1.Data.StartVar, 
TestParameter, AutoAnalysis.Line1.Point1.Data.StartCondition, 
TestParameter, AutoAnalysis.Line1.Point2.Type, 0
TestParameter, AutoAnalysis.Line1.Point2.XY.X, 
TestParameter, AutoAnalysis.Line1.Point2.XY.Y, 
TestParameter, AutoAnalysis.Line1.Point2.Data.Var, 
TestParameter, AutoAnalysis.Line1.Point2.Data.Condition, 
TestParameter, AutoAnalysis.Line1.Point2.Data.Start, false
TestParameter, AutoAnalysis.Line1.Point2.Data.StartVar, 
TestParameter, AutoAnalysis.Line1.Point2.Data.StartCondition, 
TestParameter, AutoAnalysis.Line1.GradientExpr, 0
TestParameter, AutoAnalysis.Line2.Enabled, false
TestParameter, AutoAnalysis.Line2.Type, 1
TestParameter, AutoAnalysis.Line2.Fix, True
TestParameter, AutoAnalysis.Line2.YAxis, 0
TestParameter, AutoAnalysis.Line2.Point1.Type, 0
TestParameter, AutoAnalysis.Line2.Point1.XY.X, 
TestParameter, AutoAnalysis.Line2.Point1.XY.Y, 
TestParameter, AutoAnalysis.Line2.Point1.Data.Var, 
TestParameter, AutoAnalysis.Line2.Point1.Data.Condition, 
TestParameter, AutoAnalysis.Line2.Point1.Data.Start, false
TestParameter, AutoAnalysis.Line2.Point1.Data.StartVar, 
TestParameter, AutoAnalysis.Line2.Point1.Data.StartCondition, 
TestParameter, AutoAnalysis.Line2.Point2.Type, 0
TestParameter, AutoAnalysis.Line2.Point2.XY.X, 
TestParameter, AutoAnalysis.Line2.Point2.XY.Y, 
TestParameter, AutoAnalysis.Line2.Point2.Data.Var, 
TestParameter, AutoAnalysis.Line2.Point2.Data.Condition, 
TestParameter, AutoAnalysis.Line2.Point2.Data.Start, false
TestParameter, AutoAnalysis.Line2.Point2.Data.StartVar, 
TestParameter, AutoAnalysis.Line2.Point2.Data.StartCondition, 
TestParameter, AutoAnalysis.Line2.GradientExpr, 0
TestParameter, AutoAnalysis.Marker.Enabled, false
TestParameter, AutoAnalysis.Marker.Data.Var, 
TestParameter, AutoAnalysis.Marker.Data.Condition, 
TestParameter, AutoAnalysis.Marker.Data.Start, false
TestParameter, AutoAnalysis.Marker.Data.StartVar, 
TestParameter, AutoAnalysis.Marker.Data.StartCondition, 
MetaData, TestRecord.EntryPoint, true
MetaData, TestRecord.RecordTime, 04/07/2025 17:01:56
MetaData, TestRecord.TestTarget, BGAF 3_1 306 W64-L8
MetaData, TestRecord.IterationIndex, 40
MetaData, TestRecord.Preservation, true
MetaData, TestRecord.Flag, 
MetaData, TestRecord.Remarks, 
MetaData, TestRecord.LinkKey, 2daf656c-1238-4884-9b3f-31fa47718044
MetaData, TestRecord.Parameters, 
Dimension1, 1302, 1302, 1302, 1302, 1302, 1302, 1302, 1302
Dimension2, 1, 1, 1, 1, 1, 1, 1, 1
DataName, Vg, Vd, Ig, Is, Id, absIg, absId, absIs
DataValue, -2.5, 1, -1.855E-10, 1.46E-12, 1.9163000000000001E-10, 1.855E-10, 1.9163000000000001E-10, 1.46E-12
DataValue, -2.4907500000000002, 1, -1.8484E-10, -3.3E-13, 1.8570000000000002E-10, 1.8484E-10, 1.8570000000000002E-10, 3.3E-13
DataValue, -2.4815, 1, -1.7963E-10, -9.4E-13, 1.7848000000000001E-10, 1.7963E-10, 1.7848000000000001E-10, 9.4E-13
DataValue, -2.47225, 1, -1.7539E-10, 8.2E-13, 1.7565E-10, 1.7539E-10, 1.7565E-10, 8.2E-13
DataValue, -2.463, 1, -1.6960000000000001E-10, 1.07E-12, 1.6964000000000002E-10, 1.6960000000000001E-10, 1.6964000000000002E-10, 1.07E-12
DataValue, -2.45375, 1, -1.6467E-10, 5.6E-13, 1.6466E-10, 1.6467E-10, 1.6466E-10, 5.6E-13
DataValue, -2.4445, 1, -1.615E-10, 8.300000000000001E-13, 1.6083E-10, 1.615E-10, 1.6083E-10, 8.300000000000001E-13
DataValue, -2.4355, 1, -1.5665000000000002E-10, 1.18E-12, 1.5470000000000002E-10, 1.5665000000000002E-10, 1.5470000000000002E-10, 1.18E-12
DataValue, -2.42625, 1, -1.5247000000000002E-10, 7.5E-13, 1.5248E-10, 1.5247000000000002E-10, 1.5248E-10, 7.5E-13
DataValue, -2.4170000000000003, 1, -1.4799000000000002E-10, -1.7E-13, 1.4553000000000001E-10, 1.4799000000000002E-10, 1.4553000000000001E-10, 1.7E-13
DataValue, -2.40775, 1, -1.4393000000000001E-10, -3.7000000000000004E-13, 1.4191E-10, 1.4393000000000001E-10, 1.4191E-10, 3.7000000000000004E-13
DataValue, -2.3985, 1, -1.3934E-10, -3.0000000000000003E-13, 1.3768E-10, 1.3934E-10, 1.3768E-10, 3.0000000000000003E-13
DataValue, -2.38925, 1, -1.3424000000000002E-10, -7.3E-13, 1.3519E-10, 1.3424000000000002E-10, 1.3519E-10, 7.3E-13
DataValue, -2.38, 1, -1.3007000000000002E-10, -7.9000000000000007E-13, 1.2898E-10, 1.3007000000000002E-10, 1.2898E-10, 7.9000000000000007E-13
DataValue, -2.37075, 1, -1.2592000000000002E-10, 5E-14, 1.2398000000000002E-10, 1.2592000000000002E-10, 1.2398000000000002E-10, 5E-14
DataValue, -2.3615, 1, -1.2262E-10, 8.4000000000000006E-13, 1.2007E-10, 1.2262E-10, 1.2007E-10, 8.4000000000000006E-13
DataValue, -2.35225, 1, -1.1746E-10, 2.9000000000000003E-13, 1.1564000000000001E-10, 1.1746E-10, 1.1564000000000001E-10, 2.9000000000000003E-13
DataValue, -2.343, 1, -1.1532000000000001E-10, 4.7E-13, 1.1246E-10, 1.1532000000000001E-10, 1.1246E-10, 4.7E-13
DataValue, -2.33375, 1, -1.1076000000000001E-10, -8.300000000000001E-13, 1.0879E-10, 1.1076000000000001E-10, 1.0879E-10, 8.300000000000001E-13
DataValue, -2.3245, 1, -1.0725E-10, -1.5E-12, 1.0508000000000001E-10, 1.0725E-10, 1.0508000000000001E-10, 1.5E-12
DataValue, -2.3155, 1, -1.0471E-10, -1.31E-12, 1.0274000000000001E-10, 1.0471E-10, 1.0274000000000001E-10, 1.31E-12
DataValue, -2.30625, 1, -1.0012000000000001E-10, -1E-12, 9.843E-11, 1.0012000000000001E-10, 9.843E-11, 1E-12
DataValue, -2.297, 1, -9.6960000000000007E-11, 1.8000000000000002E-13, 9.553E-11, 9.6960000000000007E-11, 9.553E-11, 1.8000000000000002E-13
DataValue, -2.28775, 1, -9.4440000000000012E-11, 4.0000000000000006E-14, 9.1830000000000008E-11, 9.4440000000000012E-11, 9.1830000000000008E-11, 4.0000000000000006E-14
DataValue, -2.2785, 1, -9.0360000000000012E-11, 5E-14, 9.005E-11, 9.0360000000000012E-11, 9.005E-11, 5E-14
DataValue, -2.26925, 1, -8.715E-11, 9.3E-13, 8.6920000000000008E-11, 8.715E-11, 8.6920000000000008E-11, 9.3E-13
DataValue, -2.2600000000000002, 1, -8.3300000000000012E-11, -1E-13, 8.4990000000000008E-11, 8.3300000000000012E-11, 8.4990000000000008E-11, 1E-13
DataValue, -2.25075, 1, -7.9750000000000009E-11, 5.9E-13, 8.1510000000000011E-11, 7.9750000000000009E-11, 8.1510000000000011E-11, 5.9E-13
DataValue, -2.2415, 1, -7.711E-11, 1.02E-12, 7.801000000000001E-11, 7.711E-11, 7.801000000000001E-11, 1.02E-12
DataValue, -2.23225, 1, -7.464E-11, 3.7000000000000004E-13, 7.646E-11, 7.464E-11, 7.646E-11, 3.7000000000000004E-13
DataValue, -2.223, 1, -7.213E-11, -3.1000000000000004E-13, 7.415000000000001E-11, 7.213E-11, 7.415000000000001E-11, 3.1000000000000004E-13
DataValue, -2.21375, 1, -6.8970000000000008E-11, -1.07E-12, 7.191E-11, 6.8970000000000008E-11, 7.191E-11, 1.07E-12
DataValue, -2.2045, 1, -6.667E-11, -9.6000000000000015E-13, 7.0240000000000008E-11, 6.667E-11, 7.0240000000000008E-11, 9.6000000000000015E-13
DataValue, -2.1955, 1, -6.487E-11, -2.2000000000000002E-13, 6.797E-11, 6.487E-11, 6.797E-11, 2.2000000000000002E-13
DataValue, -2.1862500000000002, 1, -6.2080000000000007E-11, -1.3800000000000002E-12, 6.626E-11, 6.2080000000000007E-11, 6.626E-11, 1.3800000000000002E-12
DataValue, -2.177, 1, -6.099E-11, -4.5000000000000005E-13, 6.2960000000000008E-11, 6.099E-11, 6.2960000000000008E-11, 4.5000000000000005E-13
DataValue, -2.16775, 1, -6.054E-11, 1.6000000000000003E-13, 6.0390000000000011E-11, 6.054E-11, 6.0390000000000011E-11, 1.6000000000000003E-13
DataValue, -2.1585, 1, -5.769E-11, 4.3000000000000004E-13, 5.7600000000000007E-11, 5.769E-11, 5.7600000000000007E-11, 4.3000000000000004E-13
DataValue, -2.14925, 1, -5.7560000000000006E-11, 4E-13, 5.5190000000000005E-11, 5.7560000000000006E-11, 5.5190000000000005E-11, 4E-13
DataValue, -2.14, 1, -5.4280000000000005E-11, 2E-13, 5.411E-11, 5.4280000000000005E-11, 5.411E-11, 2E-13
DataValue, -2.13075, 1, -5.3480000000000006E-11, 9.7000000000000011E-13, 5.3030000000000003E-11, 5.3480000000000006E-11, 5.3030000000000003E-11, 9.7000000000000011E-13
DataValue, -2.1215, 1, -5.1700000000000006E-11, 1.1000000000000001E-13, 5.1610000000000003E-11, 5.1700000000000006E-11, 5.1610000000000003E-11, 1.1000000000000001E-13
DataValue, -2.11225, 1, -5.1540000000000004E-11, 7.9000000000000007E-13, 4.8890000000000005E-11, 5.1540000000000004E-11, 4.8890000000000005E-11, 7.9000000000000007E-13
DataValue, -2.103, 1, -4.9500000000000004E-11, 6.400000000000001E-13, 4.9880000000000006E-11, 4.9500000000000004E-11, 4.9880000000000006E-11, 6.400000000000001E-13
DataValue, -2.09375, 1, -4.8410000000000004E-11, 1.23E-12, 4.7880000000000007E-11, 4.8410000000000004E-11, 4.7880000000000007E-11, 1.23E-12
DataValue, -2.0845000000000002, 1, -4.742E-11, 9.4E-13, 4.741E-11, 4.742E-11, 4.741E-11, 9.4E-13
DataValue, -2.0755, 1, -4.6050000000000005E-11, 8.0000000000000013E-14, 4.491E-11, 4.6050000000000005E-11, 4.491E-11, 8.0000000000000013E-14
DataValue, -2.06625, 1, -4.4590000000000004E-11, -5.9E-13, 4.349E-11, 4.4590000000000004E-11, 4.349E-11, 5.9E-13
DataValue, -2.057, 1, -4.378E-11, -4.2000000000000003E-13, 4.3930000000000004E-11, 4.378E-11, 4.3930000000000004E-11, 4.2000000000000003E-13
DataValue, -2.04775, 1, -4.167E-11, -1.1000000000000002E-12, 4.1680000000000005E-11, 4.167E-11, 4.1680000000000005E-11, 1.1000000000000002E-12
DataValue, -2.0385, 1, -4.053E-11, -6.1E-13, 3.857E-11, 4.053E-11, 3.857E-11, 6.1E-13
DataValue, -2.02925, 1, -3.922E-11, -2.7E-13, 3.6550000000000006E-11, 3.922E-11, 3.6550000000000006E-11, 2.7E-13
DataValue, -2.02, 1, -3.7750000000000005E-11, -6.2000000000000008E-13, 3.522E-11, 3.7750000000000005E-11, 3.522E-11, 6.2000000000000008E-13
DataValue, -2.0107500000000003, 1, -3.6360000000000004E-11, -1.2000000000000002E-13, 3.446E-11, 3.6360000000000004E-11, 3.446E-11, 1.2000000000000002E-13
DataValue, -2.0015, 1, -3.442E-11, 4.2000000000000003E-13, 3.245E-11, 3.442E-11, 3.245E-11, 4.2000000000000003E-13
DataValue, -1.99225, 1, -3.2720000000000004E-11, -1.5000000000000002E-13, 3.2690000000000006E-11, 3.2720000000000004E-11, 3.2690000000000006E-11, 1.5000000000000002E-13
DataValue, -1.983, 1, -3.0930000000000003E-11, 6.7000000000000007E-13, 3.0930000000000003E-11, 3.0930000000000003E-11, 3.0930000000000003E-11, 6.7000000000000007E-13
DataValue, -1.9737500000000001, 1, -2.9840000000000004E-11, 1.0600000000000001E-12, 2.9840000000000004E-11, 2.9840000000000004E-11, 2.9840000000000004E-11, 1.0600000000000001E-12
DataValue, -1.9645000000000001, 1, -2.8010000000000002E-11, 7.7000000000000005E-13, 2.8290000000000003E-11, 2.8010000000000002E-11, 2.8290000000000003E-11, 7.7000000000000005E-13
DataValue, -1.9555, 1, -2.6830000000000003E-11, -8.0000000000000013E-14, 2.695E-11, 2.6830000000000003E-11, 2.695E-11, 8.0000000000000013E-14
DataValue, -1.94625, 1, -2.6410000000000002E-11, 4.9E-13, 2.8000000000000003E-11, 2.6410000000000002E-11, 2.8000000000000003E-11, 4.9E-13
DataValue, -1.937, 1, -2.471E-11, -2.6E-13, 2.764E-11, 2.471E-11, 2.764E-11, 2.6E-13
DataValue, -1.92775, 1, -2.345E-11, -3.6000000000000003E-13, 2.7830000000000002E-11, 2.345E-11, 2.7830000000000002E-11, 3.6000000000000003E-13
DataValue, -1.9185, 1, -2.205E-11, -2.7E-13, 2.6120000000000003E-11, 2.205E-11, 2.6120000000000003E-11, 2.7E-13
DataValue, -1.9092500000000001, 1, -2.1440000000000002E-11, -1.1000000000000002E-12, 2.431E-11, 2.1440000000000002E-11, 2.431E-11, 1.1000000000000002E-12
DataValue, -1.9000000000000001, 1, -2.0800000000000002E-11, -1.4400000000000001E-12, 2.28E-11, 2.0800000000000002E-11, 2.28E-11, 1.4400000000000001E-12
DataValue, -1.89075, 1, -2.0200000000000002E-11, -9.4E-13, 2.3740000000000003E-11, 2.0200000000000002E-11, 2.3740000000000003E-11, 9.4E-13
DataValue, -1.8815, 1, -2.054E-11, -8.1000000000000008E-13, 2.143E-11, 2.054E-11, 2.143E-11, 8.1000000000000008E-13
DataValue, -1.87225, 1, -1.8870000000000002E-11, -4.6000000000000006E-13, 2.0150000000000003E-11, 1.8870000000000002E-11, 2.0150000000000003E-11, 4.6000000000000006E-13
DataValue, -1.863, 1, -1.8870000000000002E-11, -6.400000000000001E-13, 1.95E-11, 1.8870000000000002E-11, 1.95E-11, 6.400000000000001E-13
DataValue, -1.85375, 1, -1.8950000000000003E-11, -4.7E-13, 1.974E-11, 1.8950000000000003E-11, 1.974E-11, 4.7E-13
DataValue, -1.8445, 1, -1.952E-11, 6.9000000000000009E-13, 1.8510000000000003E-11, 1.952E-11, 1.8510000000000003E-11, 6.9000000000000009E-13
DataValue, -1.8355000000000001, 1, -1.894E-11, 7.7000000000000005E-13, 1.863E-11, 1.894E-11, 1.863E-11, 7.7000000000000005E-13
DataValue, -1.82625, 1, -1.8760000000000002E-11, 1.17E-12, 1.899E-11, 1.8760000000000002E-11, 1.899E-11, 1.17E-12
DataValue, -1.817, 1, -1.9330000000000003E-11, 1.7E-13, 1.852E-11, 1.9330000000000003E-11, 1.852E-11, 1.7E-13
DataValue, -1.80775, 1, -1.8820000000000003E-11, 5E-13, 1.8020000000000003E-11, 1.8820000000000003E-11, 1.8020000000000003E-11, 5E-13
DataValue, -1.7985, 1, -1.8020000000000003E-11, 6.6E-13, 1.803E-11, 1.8020000000000003E-11, 1.803E-11, 6.6E-13
DataValue, -1.78925, 1, -1.7910000000000003E-11, 5.6E-13, 1.817E-11, 1.7910000000000003E-11, 1.817E-11, 5.6E-13
DataValue, -1.78, 1, -1.7650000000000002E-11, -1.5000000000000002E-13, 1.766E-11, 1.7650000000000002E-11, 1.766E-11, 1.5000000000000002E-13
DataValue, -1.77075, 1, -1.7450000000000002E-11, -8.9E-13, 1.659E-11, 1.7450000000000002E-11, 1.659E-11, 8.9E-13
DataValue, -1.7615, 1, -1.732E-11, -8.300000000000001E-13, 1.6E-11, 1.732E-11, 1.6E-11, 8.300000000000001E-13
DataValue, -1.75225, 1, -1.632E-11, -1.03E-12, 1.59E-11, 1.632E-11, 1.59E-11, 1.03E-12
DataValue, -1.743, 1, -1.6E-11, -1E-12, 1.3180000000000002E-11, 1.6E-11, 1.3180000000000002E-11, 1E-12
DataValue, -1.7337500000000001, 1, -1.443E-11, -2.2000000000000002E-13, 1.1940000000000001E-11, 1.443E-11, 1.1940000000000001E-11, 2.2000000000000002E-13
DataValue, -1.7245000000000001, 1, -1.443E-11, -2.2000000000000002E-13, 1.1970000000000002E-11, 1.443E-11, 1.1970000000000002E-11, 2.2000000000000002E-13
DataValue, -1.7155, 1, -1.393E-11, 9.0000000000000008E-14, 1.098E-11, 1.393E-11, 1.098E-11, 9.0000000000000008E-14
DataValue, -1.70625, 1, -1.2780000000000002E-11, 2.3000000000000003E-13, 1.0600000000000001E-11, 1.2780000000000002E-11, 1.0600000000000001E-11, 2.3000000000000003E-13
DataValue, -1.697, 1, -1.1850000000000001E-11, 3.4E-13, 9.9300000000000015E-12, 1.1850000000000001E-11, 9.9300000000000015E-12, 3.4E-13
DataValue, -1.68775, 1, -1.0630000000000001E-11, 8.5000000000000011E-13, 9.8300000000000015E-12, 1.0630000000000001E-11, 9.8300000000000015E-12, 8.5000000000000011E-13
DataValue, -1.6785, 1, -1.028E-11, 1.2800000000000002E-12, 9.48E-12, 1.028E-11, 9.48E-12, 1.2800000000000002E-12
DataValue, -1.6692500000000001, 1, -1.005E-11, 4.1E-13, 9.33E-12, 1.005E-11, 9.33E-12, 4.1E-13
DataValue, -1.6600000000000001, 1, -7.770000000000001E-12, -3.0000000000000005E-14, 8.96E-12, 7.770000000000001E-12, 8.96E-12, 3.0000000000000005E-14
DataValue, -1.65075, 1, -8.32E-12, 6.1E-13, 8.780000000000001E-12, 8.32E-12, 8.780000000000001E-12, 6.1E-13
DataValue, -1.6415, 1, -6.8200000000000004E-12, 4.4000000000000004E-13, 1.1010000000000001E-11, 6.8200000000000004E-12, 1.1010000000000001E-11, 4.4000000000000004E-13
DataValue, -1.63225, 1, -6.5300000000000007E-12, 8.5000000000000011E-13, 1.0100000000000001E-11, 6.5300000000000007E-12, 1.0100000000000001E-11, 8.5000000000000011E-13
DataValue, -1.623, 1, -5.55E-12, -1.0600000000000001E-12, 8.87E-12, 5.55E-12, 8.87E-12, 1.0600000000000001E-12
DataValue, -1.61375, 1, -5.9100000000000005E-12, -4.9E-13, 8.9100000000000014E-12, 5.9100000000000005E-12, 8.9100000000000014E-12, 4.9E-13
DataValue, -1.6045, 1, -5.28E-12, -1.14E-12, 6.9000000000000009E-12, 5.28E-12, 6.9000000000000009E-12, 1.14E-12
DataValue, -1.5955000000000001, 1, -5.64E-12, -1.17E-12, 6.1100000000000004E-12, 5.64E-12, 6.1100000000000004E-12, 1.17E-12
DataValue, -1.58625, 1, -5.9600000000000005E-12, -7.3E-13, 7.55E-12, 5.9600000000000005E-12, 7.55E-12, 7.3E-13
DataValue, -1.577, 1, -4.9100000000000007E-12, -5.6E-13, 7.0300000000000005E-12, 4.9100000000000007E-12, 7.0300000000000005E-12, 5.6E-13
