
SetupTitle, Vd=1V(-2.5,3.5)
PrimitiveTest, I/V Sweep
TestParameter, Context.MainFrame, B1500A
TestParameter, Channel.UnitType, SMU, SMU, SMU
TestParameter, Channel.Unit, SMU1:HR, SMU2:HR, SMU3:HR
TestParameter, Channel.IName, Ig, Is, Id
TestParameter, Channel.VName, Vg, Vs, Vd
TestParameter, Channel.Mode, V, V, V
TestParameter, Channel.Func, VAR1, CONST, CONST
TestParameter, Channel.Index, 
TestParameter, Channel.Time, 
TestParameter, Measurement.Port.Unit, SMU1:HR, SMU2:HR, SMU3:HR
TestParameter, Measurement.Port.SeriesResistor, NONE, NONE, NONE
TestParameter, Measurement.Port.Filter, ON, ON, ON
TestParameter, Measurement.Port.OutputVoltageComparison, 0, 0, 0
TestParameter, Measurement.Primary.Locus, Double
TestParameter, Measurement.Primary.Scale, LINEAR
TestParameter, Measurement.Primary.Start, -2.5
TestParameter, Measurement.Primary.Stop, 3.5
TestParameter, Measurement.Primary.Step, 0.00925
TestParameter, Measurement.Primary.Compliance, 0.1
TestParameter, Measurement.Primary.PowerCompliance, 0
TestParameter, Measurement.Aborting.Condition, CONTINUE AT ANY
TestParameter, Measurement.PostOutput.Value, START
TestParameter, Measurement.PostOutput.Retention, OFF
TestParameter, Measurement.Bias.Source, -2.5, 0, 1
TestParameter, Measurement.Bias.Compliance, 0.1, 0.1, 0.1
TestParameter, Measurement.Monitor.Unit, SMU1:HR, SMU2:HR, SMU3:HR
TestParameter, Measurement.Monitor.Adc, HR ADC, HR ADC, HR ADC
TestParameter, Measurement.Monitor.Measurement, Compliance Side, Compliance Side, Compliance Side
TestParameter, Measurement.Monitor.RangingMode, LIMITED, LIMITED, LIMITED
TestParameter, Measurement.Monitor.RangeBoundary, 1nA, 1nA, 1nA
TestParameter, Measurement.Monitor.RangeRating, BY FULL RANGE, BY FULL RANGE, BY FULL RANGE
TestParameter, Measurement.Monitor.RangeRatingCoeff, 50, 50, 50
TestParameter, Measurement.Timing.Hold, 0
TestParameter, Measurement.Timing.Delay, 0
TestParameter, Measurement.Adc.HighSpeed.Mode, AUTO
TestParameter, Measurement.Adc.HighSpeed.Coeff, 1
TestParameter, Measurement.Adc.HighResolution.AutoZero, OFF
TestParameter, Measurement.Adc.HighResolution.Mode, AUTO
TestParameter, Measurement.Adc.HighResolution.Coeff, 3
TestParameter, Measurement.WaitTime.Source.Coeff, 1
TestParameter, Measurement.WaitTime.Source.Offset, 0
TestParameter, Measurement.WaitTime.Monitor.Coeff, 1
TestParameter, Measurement.WaitTime.Monitor.Offset, 0
TestParameter, Function.User.Name, absIg, absId, absIs
TestParameter, Function.User.Unit, A, A, A
TestParameter, Function.User.Definition, abs(Ig), abs(Id), abs(Is)
TestParameter, Output.Graph.Enabled, true
TestParameter, Output.Graph.AutoScaling, false
TestParameter, Output.Graph.XAxis.Data, Vg
TestParameter, Output.Graph.XAxis.Scale, Linear
TestParameter, Output.Graph.XAxis.Left, -2.5
TestParameter, Output.Graph.XAxis.Right, 3.5
TestParameter, Output.Graph.XAxis.RunTimeAutoScale, true
TestParameter, Output.Graph.YAxis.Data, absIg, absId, absIs
TestParameter, Output.Graph.YAxis.Scale, Log, Log, Log
TestParameter, Output.Graph.YAxis.Bottom, 0, 0, 0
TestParameter, Output.Graph.YAxis.Top, 1, 1, 1
TestParameter, Output.Graph.YAxis.Group, Group 1, Group 1, Group 1
TestParameter, Output.Graph.YAxis.RunTimeAutoScale, true, true, true
TestParameter, Output.List.Data, Vg, Vd, Ig, Id, Is, absIg, absId, absIs
TestParameter, AutoAnalysis.Interpolation, false
TestParameter, AutoAnalysis.Var2StepCount, 1
TestParameter, AutoAnalysis.Var2StepScript, 
TestParameter, AutoAnalysis.Line1.Enabled, false
TestParameter, AutoAnalysis.Line1.Type, 1
TestParameter, AutoAnalysis.Line1.Fix, True
TestParameter, AutoAnalysis.Line1.YAxis, 0
TestParameter, AutoAnalysis.Line1.Point1.Type, 0
TestParameter, AutoAnalysis.Line1.Point1.XY.X, 
TestParameter, AutoAnalysis.Line1.Point1.XY.Y, 
TestParameter, AutoAnalysis.Line1.Point1.Data.Var, 
TestParameter, AutoAnalysis.Line1.Point1.Data.Condition, 
TestParameter, AutoAnalysis.Line1.Point1.Data.Start, false
TestParameter, AutoAnalysis.Line1.Point1.Data.StartVar, 
TestParameter, AutoAnalysis.Line1.Point1.Data.StartCondition, 
TestParameter, AutoAnalysis.Line1.Point2.Type, 0
TestParameter, AutoAnalysis.Line1.Point2.XY.X, 
TestParameter, AutoAnalysis.Line1.Point2.XY.Y, 
TestParameter, AutoAnalysis.Line1.Point2.Data.Var, 
TestParameter, AutoAnalysis.Line1.Point2.Data.Condition, 
TestParameter, AutoAnalysis.Line1.Point2.Data.Start, false
TestParameter, AutoAnalysis.Line1.Point2.Data.StartVar, 
TestParameter, AutoAnalysis.Line1.Point2.Data.StartCondition, 
TestParameter, AutoAnalysis.Line1.GradientExpr, 0
TestParameter, AutoAnalysis.Line2.Enabled, false
TestParameter, AutoAnalysis.Line2.Type, 1
TestParameter, AutoAnalysis.Line2.Fix, True
TestParameter, AutoAnalysis.Line2.YAxis, 0
TestParameter, AutoAnalysis.Line2.Point1.Type, 0
TestParameter, AutoAnalysis.Line2.Point1.XY.X, 
TestParameter, AutoAnalysis.Line2.Point1.XY.Y, 
TestParameter, AutoAnalysis.Line2.Point1.Data.Var, 
TestParameter, AutoAnalysis.Line2.Point1.Data.Condition, 
TestParameter, AutoAnalysis.Line2.Point1.Data.Start, false
TestParameter, AutoAnalysis.Line2.Point1.Data.StartVar, 
TestParameter, AutoAnalysis.Line2.Point1.Data.StartCondition, 
TestParameter, AutoAnalysis.Line2.Point2.Type, 0
TestParameter, AutoAnalysis.Line2.Point2.XY.X, 
TestParameter, AutoAnalysis.Line2.Point2.XY.Y, 
TestParameter, AutoAnalysis.Line2.Point2.Data.Var, 
TestParameter, AutoAnalysis.Line2.Point2.Data.Condition, 
TestParameter, AutoAnalysis.Line2.Point2.Data.Start, false
TestParameter, AutoAnalysis.Line2.Point2.Data.StartVar, 
TestParameter, AutoAnalysis.Line2.Point2.Data.StartCondition, 
TestParameter, AutoAnalysis.Line2.GradientExpr, 0
TestParameter, AutoAnalysis.Marker.Enabled, false
TestParameter, AutoAnalysis.Marker.Data.Var, 
TestParameter, AutoAnalysis.Marker.Data.Condition, 
TestParameter, AutoAnalysis.Marker.Data.Start, false
TestParameter, AutoAnalysis.Marker.Data.StartVar, 
TestParameter, AutoAnalysis.Marker.Data.StartCondition, 
MetaData, TestRecord.EntryPoint, true
MetaData, TestRecord.RecordTime, 04/07/2025 16:26:36
MetaData, TestRecord.TestTarget, BGAF 3_1 303 W36-L5
MetaData, TestRecord.IterationIndex, 15
MetaData, TestRecord.Preservation, true
MetaData, TestRecord.Flag, 
MetaData, TestRecord.Remarks, 
MetaData, TestRecord.LinkKey, e0469d6e-e536-43ed-8a6c-ce8cea9411e8
MetaData, TestRecord.Parameters, 
Dimension1, 1302, 1302, 1302, 1302, 1302, 1302, 1302, 1302
Dimension2, 1, 1, 1, 1, 1, 1, 1, 1
DataName, Vg, Vd, Ig, Is, Id, absIg, absId, absIs
DataValue, -2.5, 1, -1.6407E-10, 3.1000000000000004E-13, 1.6391E-10, 1.6407E-10, 1.6391E-10, 3.1000000000000004E-13
DataValue, -2.4907500000000002, 1, -1.5823E-10, 5.6E-13, 1.5777000000000002E-10, 1.5823E-10, 1.5777000000000002E-10, 5.6E-13
DataValue, -2.4815, 1, -1.5478E-10, -2.2000000000000002E-13, 1.5529000000000001E-10, 1.5478E-10, 1.5529000000000001E-10, 2.2000000000000002E-13
DataValue, -2.47225, 1, -1.4964E-10, 1.02E-12, 1.4896000000000002E-10, 1.4964E-10, 1.4896000000000002E-10, 1.02E-12
DataValue, -2.463, 1, -1.4594000000000002E-10, 3.6000000000000003E-13, 1.4457000000000002E-10, 1.4594000000000002E-10, 1.4457000000000002E-10, 3.6000000000000003E-13
DataValue, -2.45375, 1, -1.4093E-10, 1.4300000000000002E-12, 1.4086000000000002E-10, 1.4093E-10, 1.4086000000000002E-10, 1.4300000000000002E-12
DataValue, -2.4445, 1, -1.3742E-10, 6.7000000000000007E-13, 1.3707E-10, 1.3742E-10, 1.3707E-10, 6.7000000000000007E-13
DataValue, -2.4355, 1, -1.3348000000000001E-10, -8.6000000000000007E-13, 1.3318E-10, 1.3348000000000001E-10, 1.3318E-10, 8.6000000000000007E-13
DataValue, -2.42625, 1, -1.2989E-10, 6.0000000000000009E-14, 1.2840000000000002E-10, 1.2989E-10, 1.2840000000000002E-10, 6.0000000000000009E-14
DataValue, -2.4170000000000003, 1, -1.2671000000000002E-10, -6.0000000000000009E-14, 1.2644E-10, 1.2671000000000002E-10, 1.2644E-10, 6.0000000000000009E-14
DataValue, -2.40775, 1, -1.2292E-10, -5.7E-13, 1.2225000000000002E-10, 1.2292E-10, 1.2225000000000002E-10, 5.7E-13
DataValue, -2.3985, 1, -1.1896000000000002E-10, -1.2900000000000002E-12, 1.1833000000000002E-10, 1.1896000000000002E-10, 1.1833000000000002E-10, 1.2900000000000002E-12
DataValue, -2.38925, 1, -1.1503000000000002E-10, -8.300000000000001E-13, 1.1174000000000001E-10, 1.1503000000000002E-10, 1.1174000000000001E-10, 8.300000000000001E-13
DataValue, -2.38, 1, -1.118E-10, -1.1000000000000002E-12, 1.0955000000000001E-10, 1.118E-10, 1.0955000000000001E-10, 1.1000000000000002E-12
DataValue, -2.37075, 1, -1.0854000000000001E-10, -6.0000000000000007E-13, 1.0528000000000001E-10, 1.0854000000000001E-10, 1.0528000000000001E-10, 6.0000000000000007E-13
DataValue, -2.3615, 1, -1.0387000000000001E-10, -1.4E-13, 1.0082000000000001E-10, 1.0387000000000001E-10, 1.0082000000000001E-10, 1.4E-13
DataValue, -2.35225, 1, -1.0103000000000001E-10, -2.0000000000000003E-14, 9.9350000000000011E-11, 1.0103000000000001E-10, 9.9350000000000011E-11, 2.0000000000000003E-14
DataValue, -2.343, 1, -9.6840000000000011E-11, -1.1000000000000001E-13, 9.471E-11, 9.6840000000000011E-11, 9.471E-11, 1.1000000000000001E-13
DataValue, -2.33375, 1, -9.231E-11, 9.8E-13, 9.2020000000000009E-11, 9.231E-11, 9.2020000000000009E-11, 9.8E-13
DataValue, -2.3245, 1, -9.0610000000000011E-11, -6.3E-13, 8.8650000000000012E-11, 9.0610000000000011E-11, 8.8650000000000012E-11, 6.3E-13
DataValue, -2.3155, 1, -8.7830000000000008E-11, -4.2000000000000003E-13, 8.687E-11, 8.7830000000000008E-11, 8.687E-11, 4.2000000000000003E-13
DataValue, -2.30625, 1, -8.483E-11, 6.6E-13, 8.4660000000000008E-11, 8.483E-11, 8.4660000000000008E-11, 6.6E-13
DataValue, -2.297, 1, -8.139E-11, -5E-13, 8.042E-11, 8.139E-11, 8.042E-11, 5E-13
DataValue, -2.28775, 1, -7.8870000000000008E-11, 8.300000000000001E-13, 7.9110000000000012E-11, 7.8870000000000008E-11, 7.9110000000000012E-11, 8.300000000000001E-13
DataValue, -2.2785, 1, -7.4320000000000008E-11, 2.1000000000000001E-13, 7.5340000000000008E-11, 7.4320000000000008E-11, 7.5340000000000008E-11, 2.1000000000000001E-13
DataValue, -2.26925, 1, -7.2550000000000011E-11, 1.6000000000000003E-13, 7.473000000000001E-11, 7.2550000000000011E-11, 7.473000000000001E-11, 1.6000000000000003E-13
DataValue, -2.2600000000000002, 1, -6.938000000000001E-11, 3.4E-13, 7.246E-11, 6.938000000000001E-11, 7.246E-11, 3.4E-13
DataValue, -2.25075, 1, -6.769E-11, -6.0000000000000007E-13, 7.0680000000000008E-11, 6.769E-11, 7.0680000000000008E-11, 6.0000000000000007E-13
DataValue, -2.2415, 1, -6.609E-11, -2E-13, 6.976E-11, 6.609E-11, 6.976E-11, 2E-13
DataValue, -2.23225, 1, -6.279000000000001E-11, -1.1500000000000002E-12, 6.609E-11, 6.279000000000001E-11, 6.609E-11, 1.1500000000000002E-12
DataValue, -2.223, 1, -6.088E-11, -3.7000000000000004E-13, 6.3760000000000008E-11, 6.088E-11, 6.3760000000000008E-11, 3.7000000000000004E-13
DataValue, -2.21375, 1, -5.825E-11, -1.0500000000000002E-12, 6.2320000000000011E-11, 5.825E-11, 6.2320000000000011E-11, 1.0500000000000002E-12
DataValue, -2.2045, 1, -5.8040000000000007E-11, -7.6000000000000009E-13, 6.075000000000001E-11, 5.8040000000000007E-11, 6.075000000000001E-11, 7.6000000000000009E-13
DataValue, -2.1955, 1, -5.6900000000000005E-11, -5.2E-13, 5.7330000000000004E-11, 5.6900000000000005E-11, 5.7330000000000004E-11, 5.2E-13
DataValue, -2.1862500000000002, 1, -5.419E-11, 3.1000000000000004E-13, 5.4160000000000003E-11, 5.419E-11, 5.4160000000000003E-11, 3.1000000000000004E-13
DataValue, -2.177, 1, -5.3000000000000004E-11, 5.5000000000000008E-13, 5.3260000000000005E-11, 5.3000000000000004E-11, 5.3260000000000005E-11, 5.5000000000000008E-13
DataValue, -2.16775, 1, -5.1830000000000004E-11, 5E-13, 5.189E-11, 5.1830000000000004E-11, 5.189E-11, 5E-13
DataValue, -2.1585, 1, -5.059E-11, -2.7E-13, 5.069E-11, 5.059E-11, 5.069E-11, 2.7E-13
DataValue, -2.14925, 1, -4.8990000000000004E-11, 7.4000000000000008E-13, 4.902E-11, 4.8990000000000004E-11, 4.902E-11, 7.4000000000000008E-13
DataValue, -2.14, 1, -4.8340000000000004E-11, 4E-13, 4.566E-11, 4.8340000000000004E-11, 4.566E-11, 4E-13
DataValue, -2.13075, 1, -4.782E-11, 9.2000000000000012E-13, 4.6550000000000003E-11, 4.782E-11, 4.6550000000000003E-11, 9.2000000000000012E-13
DataValue, -2.1215, 1, -4.5720000000000005E-11, 4.3000000000000004E-13, 4.4590000000000004E-11, 4.5720000000000005E-11, 4.4590000000000004E-11, 4.3000000000000004E-13
DataValue, -2.11225, 1, -4.4590000000000004E-11, -3.1000000000000004E-13, 4.515E-11, 4.4590000000000004E-11, 4.515E-11, 3.1000000000000004E-13
DataValue, -2.103, 1, -4.41E-11, 4.6000000000000006E-13, 4.3140000000000006E-11, 4.41E-11, 4.3140000000000006E-11, 4.6000000000000006E-13
DataValue, -2.09375, 1, -4.3860000000000004E-11, -7.7000000000000005E-13, 4.1870000000000006E-11, 4.3860000000000004E-11, 4.1870000000000006E-11, 7.7000000000000005E-13
DataValue, -2.0845000000000002, 1, -4.1750000000000004E-11, -1.08E-12, 4.02E-11, 4.1750000000000004E-11, 4.02E-11, 1.08E-12
DataValue, -2.0755, 1, -4.043E-11, -1.9000000000000002E-13, 3.9450000000000003E-11, 4.043E-11, 3.9450000000000003E-11, 1.9000000000000002E-13
DataValue, -2.06625, 1, -3.828E-11, -1.3300000000000002E-12, 3.547E-11, 3.828E-11, 3.547E-11, 1.3300000000000002E-12
DataValue, -2.057, 1, -3.668E-11, -1.9000000000000002E-13, 3.4940000000000004E-11, 3.668E-11, 3.4940000000000004E-11, 1.9000000000000002E-13
DataValue, -2.04775, 1, -3.605E-11, -6.1E-13, 3.3E-11, 3.605E-11, 3.3E-11, 6.1E-13
DataValue, -2.0385, 1, -3.415E-11, -5E-13, 3.238E-11, 3.415E-11, 3.238E-11, 5E-13
DataValue, -2.02925, 1, -3.284E-11, -5.4E-13, 3.122E-11, 3.284E-11, 3.122E-11, 5.4E-13
DataValue, -2.02, 1, -3.088E-11, 1E-12, 3.1040000000000003E-11, 3.088E-11, 3.1040000000000003E-11, 1E-12
DataValue, -2.0107500000000003, 1, -3.016E-11, 0, 2.8810000000000002E-11, 3.016E-11, 2.8810000000000002E-11, 0
DataValue, -2.0015, 1, -2.888E-11, 2.7E-13, 2.788E-11, 2.888E-11, 2.788E-11, 2.7E-13
DataValue, -1.99225, 1, -2.6700000000000002E-11, 2.1000000000000001E-13, 2.6760000000000003E-11, 2.6700000000000002E-11, 2.6760000000000003E-11, 2.1000000000000001E-13
DataValue, -1.983, 1, -2.5160000000000003E-11, 3.5E-13, 2.6990000000000002E-11, 2.5160000000000003E-11, 2.6990000000000002E-11, 3.5E-13
DataValue, -1.9737500000000001, 1, -2.4350000000000002E-11, 6.2000000000000008E-13, 2.593E-11, 2.4350000000000002E-11, 2.593E-11, 6.2000000000000008E-13
DataValue, -1.9645000000000001, 1, -2.278E-11, 1E-13, 2.5610000000000003E-11, 2.278E-11, 2.5610000000000003E-11, 1E-13
DataValue, -1.9555, 1, -2.1680000000000003E-11, -5E-13, 2.5010000000000003E-11, 2.1680000000000003E-11, 2.5010000000000003E-11, 5E-13
DataValue, -1.94625, 1, -2.0370000000000003E-11, -7.2000000000000006E-13, 2.436E-11, 2.0370000000000003E-11, 2.436E-11, 7.2000000000000006E-13
DataValue, -1.937, 1, -1.987E-11, -6.1E-13, 2.3930000000000002E-11, 1.987E-11, 2.3930000000000002E-11, 6.1E-13
DataValue, -1.92775, 1, -1.9020000000000003E-11, -6.9000000000000009E-13, 2.2460000000000002E-11, 1.9020000000000003E-11, 2.2460000000000002E-11, 6.9000000000000009E-13
DataValue, -1.9185, 1, -1.89E-11, 2.9000000000000003E-13, 2.1240000000000002E-11, 1.89E-11, 2.1240000000000002E-11, 2.9000000000000003E-13
DataValue, -1.9092500000000001, 1, -1.8220000000000003E-11, -7.6000000000000009E-13, 2.0530000000000002E-11, 1.8220000000000003E-11, 2.0530000000000002E-11, 7.6000000000000009E-13
DataValue, -1.9000000000000001, 1, -1.834E-11, -1.02E-12, 1.8270000000000002E-11, 1.834E-11, 1.8270000000000002E-11, 1.02E-12
DataValue, -1.89075, 1, -1.7560000000000002E-11, -3.8000000000000005E-13, 1.772E-11, 1.7560000000000002E-11, 1.772E-11, 3.8000000000000005E-13
DataValue, -1.8815, 1, -1.704E-11, 7.2000000000000006E-13, 1.6780000000000002E-11, 1.704E-11, 1.6780000000000002E-11, 7.2000000000000006E-13
DataValue, -1.87225, 1, -1.812E-11, 3.2000000000000005E-13, 1.7400000000000003E-11, 1.812E-11, 1.7400000000000003E-11, 3.2000000000000005E-13
DataValue, -1.863, 1, -1.6740000000000002E-11, -1E-13, 1.859E-11, 1.6740000000000002E-11, 1.859E-11, 1E-13
DataValue, -1.85375, 1, -1.659E-11, 4.0000000000000006E-14, 1.741E-11, 1.659E-11, 1.741E-11, 4.0000000000000006E-14
DataValue, -1.8445, 1, -1.721E-11, 8.0000000000000013E-14, 1.3900000000000002E-11, 1.721E-11, 1.3900000000000002E-11, 8.0000000000000013E-14
DataValue, -1.8355000000000001, 1, -1.8400000000000002E-11, 2.2000000000000002E-13, 1.6710000000000003E-11, 1.8400000000000002E-11, 1.6710000000000003E-11, 2.2000000000000002E-13
DataValue, -1.82625, 1, -1.633E-11, 2.8E-13, 1.3990000000000002E-11, 1.633E-11, 1.3990000000000002E-11, 2.8E-13
DataValue, -1.817, 1, -1.559E-11, 6.9000000000000009E-13, 1.702E-11, 1.559E-11, 1.702E-11, 6.9000000000000009E-13
DataValue, -1.80775, 1, -1.5670000000000002E-11, -5E-14, 1.5120000000000002E-11, 1.5670000000000002E-11, 1.5120000000000002E-11, 5E-14
DataValue, -1.7985, 1, -1.568E-11, -2.8E-13, 1.4500000000000002E-11, 1.568E-11, 1.4500000000000002E-11, 2.8E-13
DataValue, -1.78925, 1, -1.493E-11, -9.1000000000000016E-13, 1.362E-11, 1.493E-11, 1.362E-11, 9.1000000000000016E-13
DataValue, -1.78, 1, -1.466E-11, -8.4000000000000006E-13, 1.3700000000000002E-11, 1.466E-11, 1.3700000000000002E-11, 8.4000000000000006E-13
DataValue, -1.77075, 1, -1.3960000000000001E-11, -2.2000000000000002E-13, 1.2450000000000001E-11, 1.3960000000000001E-11, 1.2450000000000001E-11, 2.2000000000000002E-13
DataValue, -1.7615, 1, -1.3060000000000001E-11, 1.7E-13, 1.0740000000000002E-11, 1.3060000000000001E-11, 1.0740000000000002E-11, 1.7E-13
DataValue, -1.75225, 1, -1.3560000000000001E-11, -5.9E-13, 1.067E-11, 1.3560000000000001E-11, 1.067E-11, 5.9E-13
DataValue, -1.743, 1, -1.2480000000000002E-11, -5.9E-13, 1.0630000000000001E-11, 1.2480000000000002E-11, 1.0630000000000001E-11, 5.9E-13
DataValue, -1.7337500000000001, 1, -1.1330000000000001E-11, -4E-13, 9.8300000000000015E-12, 1.1330000000000001E-11, 9.8300000000000015E-12, 4E-13
DataValue, -1.7245000000000001, 1, -1.038E-11, 8.0000000000000013E-14, 9.14E-12, 1.038E-11, 9.14E-12, 8.0000000000000013E-14
DataValue, -1.7155, 1, -9.45E-12, 2.1000000000000001E-13, 9.06E-12, 9.45E-12, 9.06E-12, 2.1000000000000001E-13
DataValue, -1.70625, 1, -8.83E-12, -6.0000000000000007E-13, 8.8000000000000013E-12, 8.83E-12, 8.8000000000000013E-12, 6.0000000000000007E-13
DataValue, -1.697, 1, -8.580000000000001E-12, 2.9000000000000003E-13, 9.65E-12, 8.580000000000001E-12, 9.65E-12, 2.9000000000000003E-13
DataValue, -1.68775, 1, -7.3E-12, -3.0000000000000003E-13, 8.42E-12, 7.3E-12, 8.42E-12, 3.0000000000000003E-13
DataValue, -1.6785, 1, -7.35E-12, 5E-14, 8.9100000000000014E-12, 7.35E-12, 8.9100000000000014E-12, 5E-14
DataValue, -1.6692500000000001, 1, -6.65E-12, 3.1000000000000004E-13, 8.2700000000000009E-12, 6.65E-12, 8.2700000000000009E-12, 3.1000000000000004E-13
DataValue, -1.6600000000000001, 1, -5.6700000000000007E-12, 4.0000000000000006E-14, 8.070000000000001E-12, 5.6700000000000007E-12, 8.070000000000001E-12, 4.0000000000000006E-14
DataValue, -1.65075, 1, -5.63E-12, -9.8E-13, 8.44E-12, 5.63E-12, 8.44E-12, 9.8E-13
DataValue, -1.6415, 1, -4E-12, -6.5000000000000006E-13, 8.14E-12, 4E-12, 8.14E-12, 6.5000000000000006E-13
DataValue, -1.63225, 1, -5.0000000000000005E-12, -1.5000000000000002E-13, 5.6E-12, 5.0000000000000005E-12, 5.6E-12, 1.5000000000000002E-13
DataValue, -1.623, 1, -3.4100000000000002E-12, -1.31E-12, 6.7800000000000006E-12, 3.4100000000000002E-12, 6.7800000000000006E-12, 1.31E-12
DataValue, -1.61375, 1, -4.0500000000000007E-12, -6.9000000000000009E-13, 7.3800000000000013E-12, 4.0500000000000007E-12, 7.3800000000000013E-12, 6.9000000000000009E-13
DataValue, -1.6045, 1, -5.2000000000000005E-12, -7.2000000000000006E-13, 5.9200000000000006E-12, 5.2000000000000005E-12, 5.9200000000000006E-12, 7.2000000000000006E-13
