
SetupTitle, Vd=1V(-2.5,3.5)
PrimitiveTest, I/V Sweep
TestParameter, Context.MainFrame, B1500A
TestParameter, Channel.UnitType, SMU, SMU, SMU
TestParameter, Channel.Unit, SMU1:HR, SMU2:HR, SMU3:HR
TestParameter, Channel.IName, Ig, Is, Id
TestParameter, Channel.VName, Vg, Vs, Vd
TestParameter, Channel.Mode, V, V, V
TestParameter, Channel.Func, VAR1, CONST, CONST
TestParameter, Channel.Index, 
TestParameter, Channel.Time, 
TestParameter, Measurement.Port.Unit, SMU1:HR, SMU2:HR, SMU3:HR
TestParameter, Measurement.Port.SeriesResistor, NONE, NONE, NONE
TestParameter, Measurement.Port.Filter, ON, ON, ON
TestParameter, Measurement.Port.OutputVoltageComparison, 0, 0, 0
TestParameter, Measurement.Primary.Locus, Double
TestParameter, Measurement.Primary.Scale, LINEAR
TestParameter, Measurement.Primary.Start, -2.5
TestParameter, Measurement.Primary.Stop, 3.5
TestParameter, Measurement.Primary.Step, 0.00925
TestParameter, Measurement.Primary.Compliance, 0.1
TestParameter, Measurement.Primary.PowerCompliance, 0
TestParameter, Measurement.Aborting.Condition, CONTINUE AT ANY
TestParameter, Measurement.PostOutput.Value, START
TestParameter, Measurement.PostOutput.Retention, OFF
TestParameter, Measurement.Bias.Source, -2.5, 0, 1
TestParameter, Measurement.Bias.Compliance, 0.1, 0.1, 0.1
TestParameter, Measurement.Monitor.Unit, SMU1:HR, SMU2:HR, SMU3:HR
TestParameter, Measurement.Monitor.Adc, HR ADC, HR ADC, HR ADC
TestParameter, Measurement.Monitor.Measurement, Compliance Side, Compliance Side, Compliance Side
TestParameter, Measurement.Monitor.RangingMode, LIMITED, LIMITED, LIMITED
TestParameter, Measurement.Monitor.RangeBoundary, 1nA, 1nA, 1nA
TestParameter, Measurement.Monitor.RangeRating, BY FULL RANGE, BY FULL RANGE, BY FULL RANGE
TestParameter, Measurement.Monitor.RangeRatingCoeff, 50, 50, 50
TestParameter, Measurement.Timing.Hold, 0
TestParameter, Measurement.Timing.Delay, 0
TestParameter, Measurement.Adc.HighSpeed.Mode, AUTO
TestParameter, Measurement.Adc.HighSpeed.Coeff, 1
TestParameter, Measurement.Adc.HighResolution.AutoZero, OFF
TestParameter, Measurement.Adc.HighResolution.Mode, AUTO
TestParameter, Measurement.Adc.HighResolution.Coeff, 3
TestParameter, Measurement.WaitTime.Source.Coeff, 1
TestParameter, Measurement.WaitTime.Source.Offset, 0
TestParameter, Measurement.WaitTime.Monitor.Coeff, 1
TestParameter, Measurement.WaitTime.Monitor.Offset, 0
TestParameter, Function.User.Name, absIg, absId, absIs
TestParameter, Function.User.Unit, A, A, A
TestParameter, Function.User.Definition, abs(Ig), abs(Id), abs(Is)
TestParameter, Output.Graph.Enabled, true
TestParameter, Output.Graph.AutoScaling, false
TestParameter, Output.Graph.XAxis.Data, Vg
TestParameter, Output.Graph.XAxis.Scale, Linear
TestParameter, Output.Graph.XAxis.Left, -2.5
TestParameter, Output.Graph.XAxis.Right, 3.5
TestParameter, Output.Graph.XAxis.RunTimeAutoScale, true
TestParameter, Output.Graph.YAxis.Data, absIg, absId, absIs
TestParameter, Output.Graph.YAxis.Scale, Log, Log, Log
TestParameter, Output.Graph.YAxis.Bottom, 0, 0, 0
TestParameter, Output.Graph.YAxis.Top, 1, 1, 1
TestParameter, Output.Graph.YAxis.Group, Group 1, Group 1, Group 1
TestParameter, Output.Graph.YAxis.RunTimeAutoScale, true, true, true
TestParameter, Output.List.Data, Vg, Vd, Ig, Id, Is, absIg, absId, absIs
TestParameter, AutoAnalysis.Interpolation, false
TestParameter, AutoAnalysis.Var2StepCount, 1
TestParameter, AutoAnalysis.Var2StepScript, 
TestParameter, AutoAnalysis.Line1.Enabled, false
TestParameter, AutoAnalysis.Line1.Type, 1
TestParameter, AutoAnalysis.Line1.Fix, True
TestParameter, AutoAnalysis.Line1.YAxis, 0
TestParameter, AutoAnalysis.Line1.Point1.Type, 0
TestParameter, AutoAnalysis.Line1.Point1.XY.X, 
TestParameter, AutoAnalysis.Line1.Point1.XY.Y, 
TestParameter, AutoAnalysis.Line1.Point1.Data.Var, 
TestParameter, AutoAnalysis.Line1.Point1.Data.Condition, 
TestParameter, AutoAnalysis.Line1.Point1.Data.Start, false
TestParameter, AutoAnalysis.Line1.Point1.Data.StartVar, 
TestParameter, AutoAnalysis.Line1.Point1.Data.StartCondition, 
TestParameter, AutoAnalysis.Line1.Point2.Type, 0
TestParameter, AutoAnalysis.Line1.Point2.XY.X, 
TestParameter, AutoAnalysis.Line1.Point2.XY.Y, 
TestParameter, AutoAnalysis.Line1.Point2.Data.Var, 
TestParameter, AutoAnalysis.Line1.Point2.Data.Condition, 
TestParameter, AutoAnalysis.Line1.Point2.Data.Start, false
TestParameter, AutoAnalysis.Line1.Point2.Data.StartVar, 
TestParameter, AutoAnalysis.Line1.Point2.Data.StartCondition, 
TestParameter, AutoAnalysis.Line1.GradientExpr, 0
TestParameter, AutoAnalysis.Line2.Enabled, false
TestParameter, AutoAnalysis.Line2.Type, 1
TestParameter, AutoAnalysis.Line2.Fix, True
TestParameter, AutoAnalysis.Line2.YAxis, 0
TestParameter, AutoAnalysis.Line2.Point1.Type, 0
TestParameter, AutoAnalysis.Line2.Point1.XY.X, 
TestParameter, AutoAnalysis.Line2.Point1.XY.Y, 
TestParameter, AutoAnalysis.Line2.Point1.Data.Var, 
TestParameter, AutoAnalysis.Line2.Point1.Data.Condition, 
TestParameter, AutoAnalysis.Line2.Point1.Data.Start, false
TestParameter, AutoAnalysis.Line2.Point1.Data.StartVar, 
TestParameter, AutoAnalysis.Line2.Point1.Data.StartCondition, 
TestParameter, AutoAnalysis.Line2.Point2.Type, 0
TestParameter, AutoAnalysis.Line2.Point2.XY.X, 
TestParameter, AutoAnalysis.Line2.Point2.XY.Y, 
TestParameter, AutoAnalysis.Line2.Point2.Data.Var, 
TestParameter, AutoAnalysis.Line2.Point2.Data.Condition, 
TestParameter, AutoAnalysis.Line2.Point2.Data.Start, false
TestParameter, AutoAnalysis.Line2.Point2.Data.StartVar, 
TestParameter, AutoAnalysis.Line2.Point2.Data.StartCondition, 
TestParameter, AutoAnalysis.Line2.GradientExpr, 0
TestParameter, AutoAnalysis.Marker.Enabled, false
TestParameter, AutoAnalysis.Marker.Data.Var, 
TestParameter, AutoAnalysis.Marker.Data.Condition, 
TestParameter, AutoAnalysis.Marker.Data.Start, false
TestParameter, AutoAnalysis.Marker.Data.StartVar, 
TestParameter, AutoAnalysis.Marker.Data.StartCondition, 
MetaData, TestRecord.EntryPoint, true
MetaData, TestRecord.RecordTime, 04/07/2025 16:39:36
MetaData, TestRecord.TestTarget, BGAF 3_1 106 W64-L5
MetaData, TestRecord.IterationIndex, 24
MetaData, TestRecord.Preservation, true
MetaData, TestRecord.Flag, 
MetaData, TestRecord.Remarks, 
MetaData, TestRecord.LinkKey, 2e46cd1d-fe31-4dca-8488-251cd5b6db12
MetaData, TestRecord.Parameters, 
Dimension1, 1302, 1302, 1302, 1302, 1302, 1302, 1302, 1302
Dimension2, 1, 1, 1, 1, 1, 1, 1, 1
DataName, Vg, Vd, Ig, Is, Id, absIg, absId, absIs
DataValue, -2.5, 1, -2.7909E-10, 6.8E-13, 2.9181E-10, 2.7909E-10, 2.9181E-10, 6.8E-13
DataValue, -2.4907500000000002, 1, -2.8229E-10, 7E-14, 2.8437E-10, 2.8229E-10, 2.8437E-10, 7E-14
DataValue, -2.4815, 1, -2.7664000000000004E-10, 3.6000000000000003E-13, 2.7791E-10, 2.7664000000000004E-10, 2.7791E-10, 3.6000000000000003E-13
DataValue, -2.47225, 1, -2.6982E-10, 8.8000000000000009E-13, 2.685E-10, 2.6982E-10, 2.685E-10, 8.8000000000000009E-13
DataValue, -2.463, 1, -2.6139E-10, 1.3300000000000002E-12, 2.6191000000000003E-10, 2.6139E-10, 2.6191000000000003E-10, 1.3300000000000002E-12
DataValue, -2.45375, 1, -2.5567E-10, 5.7E-13, 2.5566E-10, 2.5567E-10, 2.5566E-10, 5.7E-13
DataValue, -2.4445, 1, -2.4851E-10, 5.9E-13, 2.4706E-10, 2.4851E-10, 2.4706E-10, 5.9E-13
DataValue, -2.4355, 1, -2.4179E-10, -5.2E-13, 2.4045000000000003E-10, 2.4179E-10, 2.4045000000000003E-10, 5.2E-13
DataValue, -2.42625, 1, -2.3499000000000003E-10, 4.7E-13, 2.3302000000000004E-10, 2.3499000000000003E-10, 2.3302000000000004E-10, 4.7E-13
DataValue, -2.4170000000000003, 1, -2.2756000000000001E-10, -8.8000000000000009E-13, 2.2684000000000002E-10, 2.2756000000000001E-10, 2.2684000000000002E-10, 8.8000000000000009E-13
DataValue, -2.40775, 1, -2.2144E-10, -1.14E-12, 2.2005E-10, 2.2144E-10, 2.2005E-10, 1.14E-12
DataValue, -2.3985, 1, -2.1532E-10, -5.9E-13, 2.1489000000000002E-10, 2.1532E-10, 2.1489000000000002E-10, 5.9E-13
DataValue, -2.38925, 1, -2.0777000000000002E-10, -1.6600000000000002E-12, 2.0601000000000002E-10, 2.0777000000000002E-10, 2.0601000000000002E-10, 1.6600000000000002E-12
DataValue, -2.38, 1, -2.0131000000000003E-10, -1.7E-13, 1.9960000000000001E-10, 2.0131000000000003E-10, 1.9960000000000001E-10, 1.7E-13
DataValue, -2.37075, 1, -1.9657000000000003E-10, 1.2000000000000002E-13, 1.9241E-10, 1.9657000000000003E-10, 1.9241E-10, 1.2000000000000002E-13
DataValue, -2.3615, 1, -1.8945E-10, 7E-14, 1.8742E-10, 1.8945E-10, 1.8742E-10, 7E-14
DataValue, -2.35225, 1, -1.8303000000000001E-10, -2.1000000000000001E-13, 1.8285000000000002E-10, 1.8303000000000001E-10, 1.8285000000000002E-10, 2.1000000000000001E-13
DataValue, -2.343, 1, -1.7735000000000001E-10, -9.0000000000000008E-14, 1.7755000000000002E-10, 1.7735000000000001E-10, 1.7755000000000002E-10, 9.0000000000000008E-14
DataValue, -2.33375, 1, -1.7113E-10, 1.2500000000000001E-12, 1.7186000000000001E-10, 1.7113E-10, 1.7186000000000001E-10, 1.2500000000000001E-12
DataValue, -2.3245, 1, -1.6646E-10, 6.6E-13, 1.6726000000000003E-10, 1.6646E-10, 1.6726000000000003E-10, 6.6E-13
DataValue, -2.3155, 1, -1.5979000000000002E-10, 9.3E-13, 1.6160000000000002E-10, 1.5979000000000002E-10, 1.6160000000000002E-10, 9.3E-13
DataValue, -2.30625, 1, -1.5582E-10, 1.4800000000000002E-12, 1.5835E-10, 1.5582E-10, 1.5835E-10, 1.4800000000000002E-12
DataValue, -2.297, 1, -1.5094000000000002E-10, 3.2000000000000005E-13, 1.5223E-10, 1.5094000000000002E-10, 1.5223E-10, 3.2000000000000005E-13
DataValue, -2.28775, 1, -1.4516000000000002E-10, 2.9000000000000003E-13, 1.4997E-10, 1.4516000000000002E-10, 1.4997E-10, 2.9000000000000003E-13
DataValue, -2.2785, 1, -1.4063E-10, 1.9000000000000002E-13, 1.4487E-10, 1.4063E-10, 1.4487E-10, 1.9000000000000002E-13
DataValue, -2.26925, 1, -1.3639E-10, -7.2000000000000006E-13, 1.3842E-10, 1.3639E-10, 1.3842E-10, 7.2000000000000006E-13
DataValue, -2.2600000000000002, 1, -1.3205E-10, -4E-13, 1.3228E-10, 1.3205E-10, 1.3228E-10, 4E-13
DataValue, -2.25075, 1, -1.2825000000000002E-10, -3.0000000000000003E-13, 1.2892E-10, 1.2825000000000002E-10, 1.2892E-10, 3.0000000000000003E-13
DataValue, -2.2415, 1, -1.2384E-10, -2.1000000000000001E-13, 1.2601E-10, 1.2384E-10, 1.2601E-10, 2.1000000000000001E-13
DataValue, -2.23225, 1, -1.2129E-10, -4.9E-13, 1.2266000000000002E-10, 1.2129E-10, 1.2266000000000002E-10, 4.9E-13
DataValue, -2.223, 1, -1.1720000000000002E-10, -1E-12, 1.1990000000000002E-10, 1.1720000000000002E-10, 1.1990000000000002E-10, 1E-12
DataValue, -2.21375, 1, -1.1316000000000001E-10, -6.8E-13, 1.1475E-10, 1.1316000000000001E-10, 1.1475E-10, 6.8E-13
DataValue, -2.2045, 1, -1.1057000000000001E-10, 3.0000000000000005E-14, 1.1311000000000001E-10, 1.1057000000000001E-10, 1.1311000000000001E-10, 3.0000000000000005E-14
DataValue, -2.1955, 1, -1.0724000000000001E-10, 4.3000000000000004E-13, 1.0818000000000001E-10, 1.0724000000000001E-10, 1.0818000000000001E-10, 4.3000000000000004E-13
DataValue, -2.1862500000000002, 1, -1.0463E-10, 1.0500000000000002E-12, 1.0542000000000001E-10, 1.0463E-10, 1.0542000000000001E-10, 1.0500000000000002E-12
DataValue, -2.177, 1, -1.0183000000000001E-10, -4.5000000000000005E-13, 1.0039E-10, 1.0183000000000001E-10, 1.0039E-10, 4.5000000000000005E-13
DataValue, -2.16775, 1, -1.0087000000000001E-10, 1.4E-13, 9.9520000000000009E-11, 1.0087000000000001E-10, 9.9520000000000009E-11, 1.4E-13
DataValue, -2.1585, 1, -9.654000000000001E-11, 1.9000000000000002E-13, 9.62E-11, 9.654000000000001E-11, 9.62E-11, 1.9000000000000002E-13
DataValue, -2.14925, 1, -9.4450000000000007E-11, 4.6000000000000006E-13, 9.3730000000000009E-11, 9.4450000000000007E-11, 9.3730000000000009E-11, 4.6000000000000006E-13
DataValue, -2.14, 1, -9.0880000000000013E-11, 1.5000000000000002E-13, 9.0250000000000011E-11, 9.0880000000000013E-11, 9.0250000000000011E-11, 1.5000000000000002E-13
DataValue, -2.13075, 1, -8.955E-11, -5.6E-13, 8.7390000000000008E-11, 8.955E-11, 8.7390000000000008E-11, 5.6E-13
DataValue, -2.1215, 1, -8.6690000000000013E-11, -2.6E-13, 8.315E-11, 8.6690000000000013E-11, 8.315E-11, 2.6E-13
DataValue, -2.11225, 1, -8.371E-11, -8.9E-13, 8.065E-11, 8.371E-11, 8.065E-11, 8.9E-13
DataValue, -2.103, 1, -8.076E-11, -3.8000000000000005E-13, 8.029E-11, 8.076E-11, 8.029E-11, 3.8000000000000005E-13
DataValue, -2.09375, 1, -7.808E-11, -1.0600000000000001E-12, 7.557E-11, 7.808E-11, 7.557E-11, 1.0600000000000001E-12
DataValue, -2.0845000000000002, 1, -7.586000000000001E-11, -1.45E-12, 7.391E-11, 7.586000000000001E-11, 7.391E-11, 1.45E-12
DataValue, -2.0755, 1, -7.386E-11, 9.0000000000000008E-14, 7.1120000000000009E-11, 7.386E-11, 7.1120000000000009E-11, 9.0000000000000008E-14
DataValue, -2.06625, 1, -7.116E-11, 3.6000000000000003E-13, 6.8970000000000008E-11, 7.116E-11, 6.8970000000000008E-11, 3.6000000000000003E-13
DataValue, -2.057, 1, -6.756000000000001E-11, -4.8000000000000008E-13, 6.738E-11, 6.756000000000001E-11, 6.738E-11, 4.8000000000000008E-13
DataValue, -2.04775, 1, -6.517E-11, 5E-13, 6.495E-11, 6.517E-11, 6.495E-11, 5E-13
DataValue, -2.0385, 1, -6.283E-11, 7.4000000000000008E-13, 6.2300000000000007E-11, 6.283E-11, 6.2300000000000007E-11, 7.4000000000000008E-13
DataValue, -2.02925, 1, -6.0890000000000009E-11, 2.5E-13, 6.129E-11, 6.0890000000000009E-11, 6.129E-11, 2.5E-13
DataValue, -2.02, 1, -5.7850000000000006E-11, -5.4E-13, 5.8960000000000009E-11, 5.7850000000000006E-11, 5.8960000000000009E-11, 5.4E-13
DataValue, -2.0107500000000003, 1, -5.6290000000000007E-11, 4.4000000000000004E-13, 5.6820000000000004E-11, 5.6290000000000007E-11, 5.6820000000000004E-11, 4.4000000000000004E-13
DataValue, -2.0015, 1, -5.3160000000000007E-11, 2.7E-13, 5.583E-11, 5.3160000000000007E-11, 5.583E-11, 2.7E-13
DataValue, -1.99225, 1, -5.1630000000000007E-11, 5.4E-13, 5.4180000000000007E-11, 5.1630000000000007E-11, 5.4180000000000007E-11, 5.4E-13
DataValue, -1.983, 1, -4.9770000000000006E-11, -1.6000000000000003E-13, 5.3540000000000003E-11, 4.9770000000000006E-11, 5.3540000000000003E-11, 1.6000000000000003E-13
DataValue, -1.9737500000000001, 1, -4.756E-11, 3.6000000000000003E-13, 4.9810000000000007E-11, 4.756E-11, 4.9810000000000007E-11, 3.6000000000000003E-13
DataValue, -1.9645000000000001, 1, -4.709E-11, 4.9E-13, 4.9400000000000005E-11, 4.709E-11, 4.9400000000000005E-11, 4.9E-13
DataValue, -1.9555, 1, -4.4950000000000004E-11, -9.7000000000000011E-13, 4.8170000000000007E-11, 4.4950000000000004E-11, 4.8170000000000007E-11, 9.7000000000000011E-13
DataValue, -1.94625, 1, -4.355E-11, 1.2000000000000002E-13, 4.628E-11, 4.355E-11, 4.628E-11, 1.2000000000000002E-13
DataValue, -1.937, 1, -4.151E-11, 1.7E-13, 4.413E-11, 4.151E-11, 4.413E-11, 1.7E-13
DataValue, -1.92775, 1, -4.01E-11, -1.79E-12, 4.2920000000000005E-11, 4.01E-11, 4.2920000000000005E-11, 1.79E-12
DataValue, -1.9185, 1, -3.9640000000000005E-11, -2.2000000000000002E-13, 4.316E-11, 3.9640000000000005E-11, 4.316E-11, 2.2000000000000002E-13
DataValue, -1.9092500000000001, 1, -3.805E-11, 2.3000000000000003E-13, 4.118E-11, 3.805E-11, 4.118E-11, 2.3000000000000003E-13
DataValue, -1.9000000000000001, 1, -3.667E-11, -6.8E-13, 3.77E-11, 3.667E-11, 3.77E-11, 6.8E-13
DataValue, -1.89075, 1, -3.722E-11, -7.100000000000001E-13, 3.7050000000000004E-11, 3.722E-11, 3.7050000000000004E-11, 7.100000000000001E-13
DataValue, -1.8815, 1, -3.601E-11, 2.4000000000000004E-13, 3.5700000000000003E-11, 3.601E-11, 3.5700000000000003E-11, 2.4000000000000004E-13
DataValue, -1.87225, 1, -3.6070000000000004E-11, 4.3000000000000004E-13, 3.529E-11, 3.6070000000000004E-11, 3.529E-11, 4.3000000000000004E-13
DataValue, -1.863, 1, -3.4290000000000005E-11, 1.5000000000000002E-13, 3.442E-11, 3.4290000000000005E-11, 3.442E-11, 1.5000000000000002E-13
DataValue, -1.85375, 1, -3.3560000000000005E-11, 6.9000000000000009E-13, 3.304E-11, 3.3560000000000005E-11, 3.304E-11, 6.9000000000000009E-13
DataValue, -1.8445, 1, -3.3820000000000006E-11, 8.6000000000000007E-13, 3.3120000000000004E-11, 3.3820000000000006E-11, 3.3120000000000004E-11, 8.6000000000000007E-13
DataValue, -1.8355000000000001, 1, -3.357E-11, 1.96E-12, 3.077E-11, 3.357E-11, 3.077E-11, 1.96E-12
DataValue, -1.82625, 1, -3.242E-11, -1.1000000000000001E-13, 3.15E-11, 3.242E-11, 3.15E-11, 1.1000000000000001E-13
DataValue, -1.817, 1, -3.074E-11, 1.2000000000000002E-13, 3.073E-11, 3.074E-11, 3.073E-11, 1.2000000000000002E-13
DataValue, -1.80775, 1, -3.069E-11, 2.1000000000000001E-13, 3.038E-11, 3.069E-11, 3.038E-11, 2.1000000000000001E-13
DataValue, -1.7985, 1, -2.943E-11, -7.7000000000000005E-13, 2.946E-11, 2.943E-11, 2.946E-11, 7.7000000000000005E-13
DataValue, -1.78925, 1, -2.943E-11, -1.21E-12, 2.7990000000000002E-11, 2.943E-11, 2.7990000000000002E-11, 1.21E-12
DataValue, -1.78, 1, -2.8200000000000003E-11, -1.31E-12, 2.7500000000000002E-11, 2.8200000000000003E-11, 2.7500000000000002E-11, 1.31E-12
DataValue, -1.77075, 1, -2.7120000000000002E-11, 2.5E-13, 2.593E-11, 2.7120000000000002E-11, 2.593E-11, 2.5E-13
DataValue, -1.7615, 1, -2.5660000000000002E-11, -3.6000000000000003E-13, 2.342E-11, 2.5660000000000002E-11, 2.342E-11, 3.6000000000000003E-13
DataValue, -1.75225, 1, -2.564E-11, -6.3E-13, 2.2550000000000002E-11, 2.564E-11, 2.2550000000000002E-11, 6.3E-13
DataValue, -1.743, 1, -2.4500000000000003E-11, -2.2000000000000002E-13, 2.198E-11, 2.4500000000000003E-11, 2.198E-11, 2.2000000000000002E-13
DataValue, -1.7337500000000001, 1, -2.2370000000000003E-11, 3.0000000000000005E-14, 2.0620000000000002E-11, 2.2370000000000003E-11, 2.0620000000000002E-11, 3.0000000000000005E-14
DataValue, -1.7245000000000001, 1, -2.123E-11, 4.9E-13, 2.0130000000000002E-11, 2.123E-11, 2.0130000000000002E-11, 4.9E-13
DataValue, -1.7155, 1, -2.034E-11, 9.9E-13, 1.906E-11, 2.034E-11, 1.906E-11, 9.9E-13
DataValue, -1.70625, 1, -1.8730000000000003E-11, 6.0000000000000009E-14, 1.639E-11, 1.8730000000000003E-11, 1.639E-11, 6.0000000000000009E-14
DataValue, -1.697, 1, -1.8400000000000002E-11, 9.1000000000000016E-13, 1.757E-11, 1.8400000000000002E-11, 1.757E-11, 9.1000000000000016E-13
DataValue, -1.68775, 1, -1.6250000000000002E-11, 6.3E-13, 1.7820000000000003E-11, 1.6250000000000002E-11, 1.7820000000000003E-11, 6.3E-13
DataValue, -1.6785, 1, -1.635E-11, 7E-13, 1.87E-11, 1.635E-11, 1.87E-11, 7E-13
DataValue, -1.6692500000000001, 1, -1.4080000000000001E-11, -2.9000000000000003E-13, 1.861E-11, 1.4080000000000001E-11, 1.861E-11, 2.9000000000000003E-13
DataValue, -1.6600000000000001, 1, -1.4830000000000002E-11, -2.4000000000000004E-13, 1.8270000000000002E-11, 1.4830000000000002E-11, 1.8270000000000002E-11, 2.4000000000000004E-13
DataValue, -1.65075, 1, -1.3960000000000001E-11, -3.0000000000000005E-14, 1.697E-11, 1.3960000000000001E-11, 1.697E-11, 3.0000000000000005E-14
DataValue, -1.6415, 1, -1.3060000000000001E-11, 2.0000000000000003E-14, 1.6070000000000002E-11, 1.3060000000000001E-11, 1.6070000000000002E-11, 2.0000000000000003E-14
DataValue, -1.63225, 1, -1.229E-11, -8.1000000000000008E-13, 1.413E-11, 1.229E-11, 1.413E-11, 8.1000000000000008E-13
DataValue, -1.623, 1, -1.1430000000000001E-11, -6.8E-13, 1.3060000000000001E-11, 1.1430000000000001E-11, 1.3060000000000001E-11, 6.8E-13
DataValue, -1.61375, 1, -1.1930000000000001E-11, -4.6000000000000006E-13, 1.381E-11, 1.1930000000000001E-11, 1.381E-11, 4.6000000000000006E-13
DataValue, -1.6045, 1, -1.16E-11, 6.0000000000000009E-14, 1.3770000000000001E-11, 1.16E-11, 1.3770000000000001E-11, 6.0000000000000009E-14
DataValue, -1.5955000000000001, 1, -1.1E-11, -7.2000000000000006E-13, 1.22E-11, 1.1E-11, 1.22E-11, 7.2000000000000006E-13
DataValue, -1.58625, 1, -1.147E-11, -6.3E-13, 1.1E-11, 1.147E-11, 1.1E-11, 6.3E-13
DataValue, -1.577, 1, -1.1610000000000001E-11, -5E-14, 1.0010000000000001E-11, 1.1610000000000001E-11, 1.0010000000000001E-11, 5E-14
DataValue, -1.56775, 1, -1.117E-11, 5.1E-13, 1.1640000000000001E-11, 1.117E-11, 1.1640000000000001E-11, 5.1E-13
